(1712462170.587332) vcan0 594#34213421A0610420
(1712462170.587582) vcan0 491#4C0000000000000F
(1712462170.587842) vcan0 493#000C207000005807
(1712462170.588102) vcan0 4DD#0000000000000100
(1712462170.588352) vcan0 4DE#007F0B00F0C41E00
(1712462170.588522) vcan0 4E2#C0036A040000C19E
(1712462170.588782) vcan0 542#640B00000000FFFF
(1712462170.589032) vcan0 595#0B00B8B80000180E
(1712462170.589292) vcan0 596#3A7A00004C000B0B
(1712462170.589552) vcan0 597#815E010000000000
(1712462170.589722) vcan0 598#00000000EB357F12
(1712462170.589972) vcan0 599#0800000000000000
(1712462170.590232) vcan0 59C#0000000000000000
(1712462170.590492) vcan0 59E#00000000180E0000
(1712462170.590742) vcan0 5A3#0F0000004B714B71
(1712462170.591002) vcan0 5D5#000000A0C8C80004
(1712462170.591172) vcan0 5D6#B8B800000B0B2DAB
(1712462170.591422) vcan0 5D7#0200000000000000
(1712462170.591682) vcan0 5D8#806404005E01180E
(1712462170.687342) vcan0 594#34213421A0610420
(1712462170.687592) vcan0 491#4C0000000000000F
(1712462170.687852) vcan0 493#000C207000005807
(1712462170.688112) vcan0 4DD#0000000000000100
(1712462170.688282) vcan0 4DE#007F0B00F0C41E00
(1712462170.688532) vcan0 4E2#C0036A040000C19E
(1712462170.688792) vcan0 542#640B00000000FFFF
(1712462170.689052) vcan0 595#0B00B8B80000180E
(1712462170.689302) vcan0 596#767A00004C000B0B
(1712462170.689472) vcan0 597#015E010000000000
(1712462170.689732) vcan0 598#00000000EB357F12
(1712462170.689982) vcan0 599#0800000000000000
(1712462170.690242) vcan0 59C#0000000000000000
(1712462170.690502) vcan0 59E#00000000180E0000
(1712462170.690752) vcan0 5A3#0F0000004B714B71
(1712462170.691012) vcan0 5D5#000000A0C8C80004
(1712462170.691182) vcan0 5D6#B8B800000B0B3A55
(1712462170.691432) vcan0 5D7#0200000000000000
(1712462170.691692) vcan0 5D8#806404005E01180E
(1712462170.787352) vcan0 594#34213421A0610420
(1712462170.787612) vcan0 491#4C0000000000000F
(1712462170.787862) vcan0 493#000C207000005807
(1712462170.788032) vcan0 4DD#0000000000000100
(1712462170.788292) vcan0 4DE#007F0B00F0C41E00
(1712462170.788542) vcan0 4E2#C0036A040000C19E
(1712462170.788802) vcan0 542#640B00000000FFFF
(1712462170.789062) vcan0 595#0B00B8B80000180E
(1712462170.789232) vcan0 596#837A00004C000B0B
(1712462170.789482) vcan0 597#815E010000000000
(1712462170.789742) vcan0 598#00000000EB357F12
(1712462170.789992) vcan0 599#0800000000000000
(1712462170.790252) vcan0 59C#0000000000000000
(1712462170.790512) vcan0 59E#00000000180E0000
(1712462170.790762) vcan0 5A3#0F0000004B714B71
(1712462170.790932) vcan0 5D5#000000A0C8C80004
(1712462170.791192) vcan0 5D6#B8B800000B0B3A55
(1712462170.791452) vcan0 5D7#0200000000000000
(1712462170.791702) vcan0 5D8#806404005E01180E
(1712462170.887362) vcan0 594#34213421A0610420
(1712462170.887622) vcan0 491#4C0000000000000F
(1712462170.887872) vcan0 493#000C207000005807
(1712462170.888042) vcan0 4DD#0000000000000100
(1712462170.888302) vcan0 4DE#007F0B00F0C41E00
(1712462170.888552) vcan0 4E2#C0036A040000C19E
(1712462170.888812) vcan0 542#640B00000000FFFF
(1712462170.889072) vcan0 595#0B00B8B80000180E
(1712462170.889242) vcan0 596#917A00004C000B0B
(1712462170.889492) vcan0 597#015E010000000000
(1712462170.889752) vcan0 598#00000000EB357F12
(1712462170.890012) vcan0 599#0800000000000000
(1712462170.890262) vcan0 59C#0000000000000000
(1712462170.890522) vcan0 59E#00000000180E0000
(1712462170.890772) vcan0 5A3#0F0000004B714B71
(1712462170.890942) vcan0 5D5#000000A0C8C80004
(1712462170.891202) vcan0 5D6#B8B800000B0B83AB
(1712462170.891462) vcan0 5D7#0200000000000000
(1712462170.891712) vcan0 5D8#806404005E01180E
(1712462170.987372) vcan0 594#34213421A0610420
(1712462170.987632) vcan0 491#4C0000000000000F
(1712462170.987802) vcan0 493#000C207000005807
(1712462170.988052) vcan0 4DD#0000000000000100
(1712462170.988312) vcan0 4DE#007F0B00F0C41E00
(1712462170.988572) vcan0 4E2#C0036A040000C19E
(1712462170.988822) vcan0 542#640B00000000FFFF
(1712462170.988992) vcan0 595#0B00B8B80000180E
(1712462170.989252) vcan0 596#A97A00004C000B0B
(1712462170.989502) vcan0 597#815E010000000000
(1712462170.989762) vcan0 598#00000000EB357F12
(1712462170.990022) vcan0 599#0800000000000000
(1712462170.990272) vcan0 59C#0000000000000000
(1712462170.990532) vcan0 59E#00000000180E0000
(1712462170.990702) vcan0 5A3#0F0000004B714B71
(1712462170.990952) vcan0 5D5#000000A0C8C80004
(1712462170.991212) vcan0 5D6#B8B800000B0B83AB
(1712462170.991472) vcan0 5D7#0200000000000000
(1712462170.991722) vcan0 5D8#806404005E01180E
(1712462171.087382) vcan0 594#34213421A0610420
(1712462171.087552) vcan0 491#4C0000000000000F
(1712462171.087812) vcan0 493#000C207000005807
(1712462171.088062) vcan0 4DD#0000000000000100
(1712462171.088322) vcan0 4DE#007F0B00F0C41E00
(1712462171.088582) vcan0 4E2#C0036A040000C19E
(1712462171.088832) vcan0 542#640B00000000FFFF
(1712462171.089002) vcan0 595#0B00B8B80000180E
(1712462171.089262) vcan0 596#157A00004C000B0B
(1712462171.089512) vcan0 597#015E010000000000
(1712462171.089772) vcan0 598#00000000EB357F12
(1712462171.090032) vcan0 599#0800000000000000
(1712462171.090282) vcan0 59C#0000000000000000
(1712462171.090542) vcan0 59E#00000000180E0000
(1712462171.090712) vcan0 5A3#0F0000004B714B71
(1712462171.090972) vcan0 5D5#000000A0C8C80004
(1712462171.091222) vcan0 5D6#B8B800000B0BA955
(1712462171.091482) vcan0 5D7#0200000000000000
(1712462171.091732) vcan0 5D8#806404005E01180E
(1712462171.187312) vcan0 594#34213421A0610420
(1712462171.187562) vcan0 491#4C0000000000000F
(1712462171.187822) vcan0 493#000C207000005807
(1712462171.188072) vcan0 4DD#0000000000000100
(1712462171.188332) vcan0 4DE#007F0B00F0C41E00
(1712462171.188592) vcan0 4E2#C0036A040000C19E
(1712462171.188762) vcan0 542#640B00000000FFFF
(1712462171.189012) vcan0 595#0B00B8B80000180E
(1712462171.189272) vcan0 596#217A00004C000B0B
(1712462171.189532) vcan0 597#815E010000000000
(1712462171.189782) vcan0 598#00000000EB357F12
(1712462171.190042) vcan0 599#0800000000000000
(1712462171.190212) vcan0 59C#0000000000000000
(1712462171.190462) vcan0 59E#00000000180E0000
(1712462171.190722) vcan0 5A3#0F0000004B714B71
(1712462171.190982) vcan0 5D5#000000A0C8C80004
(1712462171.191232) vcan0 5D6#B8B800000B0BA955
(1712462171.191402) vcan0 5D7#0200000000000000
(1712462171.191662) vcan0 5D8#806404005E01180E
(1712462171.248062) vcan0 7E4#023E000000000000
(1712462171.253952) vcan0 7EC#027E00AAAAAAAAAA
(1712462171.287322) vcan0 594#34213421A0610420
(1712462171.287572) vcan0 491#4C0000000000000F
(1712462171.287832) vcan0 493#000C207000005807
(1712462171.288092) vcan0 4DD#0000000000000100
(1712462171.288342) vcan0 4DE#007F0B00F0C41E00
(1712462171.288512) vcan0 4E2#C0036A040000C19E
(1712462171.288772) vcan0 542#640B00000000FFFF
(1712462171.289022) vcan0 595#0B00B8B80000180E
(1712462171.289282) vcan0 596#227A00004C000B0B
(1712462171.289542) vcan0 597#015E010000000000
(1712462171.289712) vcan0 598#00000000EB357F12
(1712462171.289962) vcan0 599#0800000000000000
(1712462171.290222) vcan0 59C#0000000000000000
(1712462171.290472) vcan0 59E#00000000180E0000
(1712462171.290732) vcan0 5A3#0F0000004B714B71
(1712462171.290992) vcan0 5D5#000000A0C8C80004
(1712462171.291242) vcan0 5D6#B8B800000B0B21AB
(1712462171.291412) vcan0 5D7#0200000000000000
(1712462171.291672) vcan0 5D8#806404005E01180E
(1712462171.387332) vcan0 594#34213421A0610420
(1712462171.387582) vcan0 3F6#1800000000000000
(1712462171.387842) vcan0 491#4C0000000000000F
(1712462171.388102) vcan0 493#000C207000005807
(1712462171.388352) vcan0 497#220000B400000000
(1712462171.388612) vcan0 498#0000000000000000
(1712462171.388782) vcan0 4DD#0000000000000100
(1712462171.389032) vcan0 4DE#007F0B00F0C41E00
(1712462171.389292) vcan0 4E2#C0036A040000C19E
(1712462171.389552) vcan0 542#640B00000000FFFF
(1712462171.389802) vcan0 595#0B00B8B80000180E
(1712462171.389972) vcan0 596#257A00004C000B0B
(1712462171.390232) vcan0 597#815E010000000000
(1712462171.390492) vcan0 598#00000000EB357F12
(1712462171.390742) vcan0 599#0800000000000000
(1712462171.391002) vcan0 59C#0000000000000000
(1712462171.391252) vcan0 59E#00000000180E0000
(1712462171.391512) vcan0 5A3#0F0000004B714B71
(1712462171.391682) vcan0 5D5#000000A0C8C80004
(1712462171.391942) vcan0 5D6#B8B800000B0B21AB
(1712462171.392192) vcan0 5D7#0200000000000000
(1712462171.392452) vcan0 5D8#806404005E01180E
(1712462171.487342) vcan0 594#34213421A0610420
(1712462171.487592) vcan0 491#4C0000000000000F
(1712462171.487852) vcan0 493#000C207000005807
(1712462171.488112) vcan0 4DD#0000000000000100
(1712462171.488282) vcan0 4DE#007F0B00F0C41E00
(1712462171.488532) vcan0 4E2#C0036A040000C19E
(1712462171.488792) vcan0 542#640B00000000FFFF
(1712462171.489052) vcan0 595#0B00B8B80000180E
(1712462171.489302) vcan0 596#2D7A00004C000B0B
(1712462171.489472) vcan0 597#015E010000000000
(1712462171.489732) vcan0 598#00000000EB357F12
(1712462171.489982) vcan0 599#0800000000000000
(1712462171.490242) vcan0 59C#0000000000000000
(1712462171.490502) vcan0 59E#00000000180E0000
(1712462171.490752) vcan0 5A3#0F0000004B714B71
(1712462171.491012) vcan0 5D5#000000A0C8C80004
(1712462171.491182) vcan0 5D6#B8B800000B0B2555
(1712462171.491432) vcan0 5D7#0200000000000000
(1712462171.491692) vcan0 5D8#806404005E01180E
(1712462171.587352) vcan0 594#34213421A0610420
(1712462171.587612) vcan0 491#4C0000000000000F
(1712462171.587862) vcan0 493#000C207000005807
(1712462171.588032) vcan0 4DD#0000000000000100
(1712462171.588292) vcan0 4DE#007F0B00F0C41E00
(1712462171.588542) vcan0 4E2#C0036A040000C19E
(1712462171.588802) vcan0 542#640B00000000FFFF
(1712462171.589062) vcan0 595#0B00B8B80000180E
(1712462171.589232) vcan0 596#387A00004C000B0B
(1712462171.589482) vcan0 597#815E010000000000
(1712462171.589742) vcan0 598#00000000EB357F12
(1712462171.589992) vcan0 599#0800000000000000
(1712462171.590252) vcan0 59C#0000000000000000
(1712462171.590512) vcan0 59E#00000000180E0000
(1712462171.590762) vcan0 5A3#0F0000004B714B71
(1712462171.590932) vcan0 5D5#000000A0C8C80004
(1712462171.591192) vcan0 5D6#B8B800000B0B2555
(1712462171.591452) vcan0 5D7#0200000000000000
(1712462171.591702) vcan0 5D8#806404005E01180E
(1712462171.687362) vcan0 594#34213421A0610420
(1712462171.687622) vcan0 491#4C0000000000000F
(1712462171.687792) vcan0 493#000C207000005807
(1712462171.688042) vcan0 4DD#0000000000000100
(1712462171.688302) vcan0 4DE#007F0B00F0C41E00
(1712462171.688552) vcan0 4E2#C0036A040000C19E
(1712462171.688812) vcan0 542#640B00000000FFFF
(1712462171.689072) vcan0 595#0B00B8B80000180E
(1712462171.689242) vcan0 596#3A7A00004C000B0B
(1712462171.689492) vcan0 597#015E010000000000
(1712462171.689752) vcan0 598#00000000EB357F12
(1712462171.690012) vcan0 599#0800000000000000
(1712462171.690262) vcan0 59C#0000000000000000
(1712462171.690522) vcan0 59E#00000000180E0000
(1712462171.690692) vcan0 5A3#0F0000004B714B71
(1712462171.690942) vcan0 5D5#000000A0C8C80004
(1712462171.691202) vcan0 5D6#B8B800000B0B38AB
(1712462171.691462) vcan0 5D7#0200000000000000
(1712462171.691712) vcan0 5D8#806404005E01180E
(1712462171.787372) vcan0 594#34213421A0610420
(1712462171.787542) vcan0 491#4C0000000000000F
(1712462171.787802) vcan0 493#000C207000005807
(1712462171.788052) vcan0 4DD#0000000000000100
(1712462171.788312) vcan0 4DE#007F0B00F0C41E00
(1712462171.788572) vcan0 4E2#C0036A040000C19E
(1712462171.788822) vcan0 542#640B00000000FFFF
(1712462171.788992) vcan0 595#0B00B8B80000180E
(1712462171.789252) vcan0 596#767A00004C000B0B
(1712462171.789502) vcan0 597#815E010000000000
(1712462171.789762) vcan0 598#00000000EB357F12
(1712462171.790022) vcan0 599#0800000000000000
(1712462171.790272) vcan0 59C#0000000000000000
(1712462171.790442) vcan0 59E#00000000180E0000
(1712462171.790702) vcan0 5A3#0F0000004B714B71
(1712462171.790952) vcan0 5D5#000000A0C8C80004
(1712462171.791212) vcan0 5D6#B8B800000B0B38AB
(1712462171.791472) vcan0 5D7#0200000000000000
(1712462171.791642) vcan0 5D8#806404005E01180E
(1712462171.887302) vcan0 594#34213421A0610420
(1712462171.887552) vcan0 491#4C0000000000000F
(1712462171.887812) vcan0 493#000C207000005807
(1712462171.888062) vcan0 4DD#0000000000000100
(1712462171.888322) vcan0 4DE#007F0B00F0C41E00
(1712462171.888582) vcan0 4E2#C0036A040000C19E
(1712462171.888752) vcan0 542#640B00000000FFFF
(1712462171.889002) vcan0 595#0B00B8B80000180E
(1712462171.889262) vcan0 596#837A00004C000B0B
(1712462171.889512) vcan0 597#015E010000000000
(1712462171.889772) vcan0 598#00000000EB357F12
(1712462171.890032) vcan0 599#0800000000000000
(1712462171.890202) vcan0 59C#0000000000000000
(1712462171.890452) vcan0 59E#00000000180E0000
(1712462171.890712) vcan0 5A3#0F0000004B714B71
(1712462171.890972) vcan0 5D5#000000A0C8C80004
(1712462171.891222) vcan0 5D6#B8B800000B0B7655
(1712462171.891482) vcan0 5D7#0200000000000000
(1712462171.891652) vcan0 5D8#806404005E01180E
(1712462171.987312) vcan0 594#34213421A0610420
(1712462171.987562) vcan0 491#4C0000000000000F
(1712462171.987822) vcan0 493#000C207000005807
(1712462171.988072) vcan0 4DD#0000000000000100
(1712462171.988332) vcan0 4DE#007F0B00F0C41E00
(1712462171.988502) vcan0 4E2#C0036A040000C19E
(1712462171.988762) vcan0 542#640B00000000FFFF
(1712462171.989012) vcan0 595#0B00B8B80000180E
(1712462171.989272) vcan0 596#917A00004C000B0B
(1712462171.989532) vcan0 597#815E010000000000
(1712462171.989782) vcan0 598#00000000EB357F12
(1712462171.989952) vcan0 599#0800000000000000
(1712462171.990212) vcan0 59C#0000000000000000
(1712462171.990462) vcan0 59E#00000000180E0000
(1712462171.990722) vcan0 5A3#0F0000004B714B71
(1712462171.990982) vcan0 5D5#000000A0C8C80004
(1712462171.991232) vcan0 5D6#B8B800000B0B7655
(1712462171.991402) vcan0 5D7#0200000000000000
(1712462171.991662) vcan0 5D8#806404005E01180E
(1712462172.087322) vcan0 594#34213421A0610420
(1712462172.087572) vcan0 491#4C0000000000000F
(1712462172.087832) vcan0 493#000C207000005807
(1712462172.088092) vcan0 4DD#0000000000000100
(1712462172.088342) vcan0 4DE#007F0B00F0C41E00
(1712462172.088512) vcan0 4E2#C0036A040000C19E
(1712462172.088772) vcan0 542#640B00000000FFFF
(1712462172.089022) vcan0 595#0B00B8B80000180E
(1712462172.089282) vcan0 596#A97A00004C000B0B
(1712462172.089542) vcan0 597#015E010000000000
(1712462172.089712) vcan0 598#00000000EB357F12
(1712462172.089962) vcan0 599#0800000000000000
(1712462172.090222) vcan0 59C#0000000000000000
(1712462172.090472) vcan0 59E#00000000180E0000
(1712462172.090732) vcan0 5A3#0F0000004B714B71
(1712462172.090992) vcan0 5D5#000000A0C8C80004
(1712462172.091162) vcan0 5D6#B8B800000B0B91AB
(1712462172.091412) vcan0 5D7#0200000000000000
(1712462172.091672) vcan0 5D8#806404005E01180E
(1712462172.187332) vcan0 594#34213421A0610420
(1712462172.187582) vcan0 491#4C0000000000000F
(1712462172.187842) vcan0 493#000C207000005807
(1712462172.188102) vcan0 4DD#0000000000000100
(1712462172.188272) vcan0 4DE#007F0B00F0C41E00
(1712462172.188522) vcan0 4E2#C0036A040000C19E
(1712462172.188782) vcan0 542#640B00000000FFFF
(1712462172.189032) vcan0 595#0B00B8B80000180E
(1712462172.189292) vcan0 596#157A00004C000B0B
(1712462172.189462) vcan0 597#815E010000000000
(1712462172.189722) vcan0 598#00000000EB357F12
(1712462172.189972) vcan0 599#0800000000000000
(1712462172.190232) vcan0 59C#0000000000000000
(1712462172.190492) vcan0 59E#00000000180E0000
(1712462172.190742) vcan0 5A3#0F0000004B714B71
(1712462172.191002) vcan0 5D5#000000A0C8C80004
(1712462172.191172) vcan0 5D6#B8B800000B0B91AB
(1712462172.191422) vcan0 5D7#0200000000000000
(1712462172.191682) vcan0 5D8#806404005E01180E
(1712462172.287342) vcan0 594#34213421A0610420
(1712462172.287592) vcan0 491#4C0000000000000F
(1712462172.287852) vcan0 493#000C207000005807
(1712462172.288112) vcan0 4DD#0000000000000100
(1712462172.288282) vcan0 4DE#007F0B00F0C41E00
(1712462172.288532) vcan0 4E2#C0036A040000C19E
(1712462172.288792) vcan0 542#640B00000000FFFF
(1712462172.289052) vcan0 595#0B00B8B80000180E
(1712462172.289302) vcan0 596#217A00004C000B0B
(1712462172.289472) vcan0 597#015E010000000000
(1712462172.289732) vcan0 598#00000000EB357F12
(1712462172.289982) vcan0 599#0800000000000000
(1712462172.290242) vcan0 59C#0000000000000000
(1712462172.290502) vcan0 59E#00000000180E0000
(1712462172.290752) vcan0 5A3#0F0000004B714B71
(1712462172.291012) vcan0 5D5#000000A0C8C80004
(1712462172.291182) vcan0 5D6#B8B800000B0B1555
(1712462172.291432) vcan0 5D7#0200000000000000
(1712462172.291692) vcan0 5D8#806404005E01180E
(1712462172.387352) vcan0 594#34213421A0610420
(1712462172.387612) vcan0 3F6#1800000000000000
(1712462172.387862) vcan0 491#4C0000000000000F
(1712462172.388032) vcan0 493#000C207000005807
(1712462172.388292) vcan0 497#110000B400000000
(1712462172.388542) vcan0 498#0000000000000000
(1712462172.388802) vcan0 4DD#0000000000000100
(1712462172.389062) vcan0 4DE#007F0B00F0C41E00
(1712462172.389312) vcan0 4E2#C0036A040000C19E
(1712462172.389482) vcan0 542#640B00000000FFFF
(1712462172.389742) vcan0 595#0B00B8B80000180E
(1712462172.389992) vcan0 596#227A00004C000B0B
(1712462172.390252) vcan0 597#815E010000000000
(1712462172.390512) vcan0 598#00000000EB357F12
(1712462172.390762) vcan0 599#0800000000000000
(1712462172.391022) vcan0 59C#0000000000000000
(1712462172.391192) vcan0 59E#00000000180E0000
(1712462172.391452) vcan0 5A3#0F0000004B714B71
(1712462172.391702) vcan0 5D5#000000A0C8C80004
(1712462172.391962) vcan0 5D6#B8B800000B0B1555
(1712462172.392212) vcan0 5D7#0200000000000000
(1712462172.392382) vcan0 5D8#806404005E01180E
(1712462172.487362) vcan0 594#34213421A0610420
(1712462172.487532) vcan0 491#4C0000000000000F
(1712462172.487792) vcan0 493#000C207000005807
(1712462172.488042) vcan0 4DD#0000000000000100
(1712462172.488302) vcan0 4DE#007F0B00F0C41E00
(1712462172.488552) vcan0 4E2#C0036A040000C19E
(1712462172.488812) vcan0 542#640B00000000FFFF
(1712462172.488982) vcan0 595#0B00B8B80000180E
(1712462172.489242) vcan0 596#257A00004C000B0B
(1712462172.489492) vcan0 597#015E010000000000
(1712462172.489752) vcan0 598#00000000EB357F12
(1712462172.490012) vcan0 599#0800000000000000
(1712462172.490262) vcan0 59C#0000000000000000
(1712462172.490522) vcan0 59E#00000000180E0000
(1712462172.490692) vcan0 5A3#0F0000004B714B71
(1712462172.490942) vcan0 5D5#000000A0C8C80004
(1712462172.491202) vcan0 5D6#B8B800000B0B22AB
(1712462172.491462) vcan0 5D7#0200000000000000
(1712462172.491712) vcan0 5D8#806404005E01180E
(1712462172.587372) vcan0 594#34213421A0610420
(1712462172.587542) vcan0 491#4C0000000000000F
(1712462172.587802) vcan0 493#000C207000005807
(1712462172.588052) vcan0 4DD#0000000000000100
(1712462172.588312) vcan0 4DE#007F0B00F0C41E00
(1712462172.588572) vcan0 4E2#C0036A040000C19E
(1712462172.588742) vcan0 542#640B00000000FFFF
(1712462172.588992) vcan0 595#0B00B8B80000180E
(1712462172.589252) vcan0 596#2D7A00004C000B0B
(1712462172.589502) vcan0 597#815E010000000000
(1712462172.589762) vcan0 598#00000000EB357F12
(1712462172.590022) vcan0 599#0800000000000000
(1712462172.590272) vcan0 59C#0000000000000000
(1712462172.590532) vcan0 59E#00000000180E0000
(1712462172.590702) vcan0 5A3#0F0000004B714B71
(1712462172.590952) vcan0 5D5#000000A0C8C80004
(1712462172.591212) vcan0 5D6#B8B800000B0B22AB
(1712462172.591472) vcan0 5D7#0200000000000000
(1712462172.591642) vcan0 5D8#806404005E01180E
(1712462172.687302) vcan0 594#34213421A0610420
(1712462172.687552) vcan0 491#4C0000000000000F
(1712462172.687812) vcan0 493#000C207000005807
(1712462172.688062) vcan0 4DD#0000000000000100
(1712462172.688322) vcan0 4DE#007F0B00F0C41E00
(1712462172.688582) vcan0 4E2#C0036A040000C19E
(1712462172.688752) vcan0 542#640B00000000FFFF
(1712462172.689002) vcan0 595#0B00B8B80000180E
(1712462172.689262) vcan0 596#387A00004C000B0B
(1712462172.689512) vcan0 597#015E010000000000
(1712462172.689772) vcan0 598#00000000EB357F12
(1712462172.690032) vcan0 599#0800000000000000
(1712462172.690202) vcan0 59C#0000000000000000
(1712462172.690452) vcan0 59E#00000000180E0000
(1712462172.690712) vcan0 5A3#0F0000004B714B71
(1712462172.690972) vcan0 5D5#000000A0C8C80004
(1712462172.691222) vcan0 5D6#B8B800000B0B2D55
(1712462172.691482) vcan0 5D7#0200000000000000
(1712462172.691652) vcan0 5D8#806404005E01180E
(1712462172.787312) vcan0 594#34213421A0610420
(1712462172.787562) vcan0 491#4C0000000000000F
(1712462172.787822) vcan0 493#000C207000005807
(1712462172.788072) vcan0 4DD#0000000000000100
(1712462172.788332) vcan0 4DE#007F0B00F0C41E00
(1712462172.788502) vcan0 4E2#C0036A040000C19E
(1712462172.788762) vcan0 542#640B00000000FFFF
(1712462172.789012) vcan0 595#0B00B8B80000180E
(1712462172.789272) vcan0 596#3A7A00004C000B0B
(1712462172.789532) vcan0 597#815E010000000000
(1712462172.789702) vcan0 598#00000000EB357F12
(1712462172.789952) vcan0 599#0800000000000000
(1712462172.790212) vcan0 59C#0000000000000000
(1712462172.790462) vcan0 59E#00000000180E0000
(1712462172.790722) vcan0 5A3#0F0000004B714B71
(1712462172.790982) vcan0 5D5#000000A0C8C80004
(1712462172.791232) vcan0 5D6#B8B800000B0B2D55
(1712462172.791402) vcan0 5D7#0200000000000000
(1712462172.791662) vcan0 5D8#806404005E01180E
(1712462172.887322) vcan0 594#34213421A0610420
(1712462172.887572) vcan0 491#4C0000000000000F
(1712462172.887832) vcan0 493#000C207000005807
(1712462172.888092) vcan0 4DD#0000000000000100
(1712462172.888262) vcan0 4DE#007F0B00F0C41E00
(1712462172.888512) vcan0 4E2#C0036A040000C19E
(1712462172.888772) vcan0 542#640B00000000FFFF
(1712462172.889022) vcan0 595#0B00B8B80000180E
(1712462172.889282) vcan0 596#767A00004C000B0B
(1712462172.889542) vcan0 597#015E010000000000
(1712462172.889712) vcan0 598#00000000EB357F12
(1712462172.889962) vcan0 599#0800000000000000
(1712462172.890222) vcan0 59C#0000000000000000
(1712462172.890472) vcan0 59E#00000000180E0000
(1712462172.890732) vcan0 5A3#0F0000004B714B71
(1712462172.890992) vcan0 5D5#000000A0C8C80004
(1712462172.891162) vcan0 5D6#B8B800000B0B3AAB
(1712462172.891412) vcan0 5D7#0200000000000000
(1712462172.891672) vcan0 5D8#806404005E01180E
(1712462172.987332) vcan0 594#34213421A0610420
(1712462172.987582) vcan0 491#4C0000000000000F
(1712462172.987842) vcan0 493#000C207000005807
(1712462172.988102) vcan0 4DD#0000000000000100
(1712462172.988272) vcan0 4DE#007F0B00F0C41E00
(1712462172.988522) vcan0 4E2#C0036A040000C19E
(1712462172.988782) vcan0 542#640B00000000FFFF
(1712462172.989032) vcan0 595#0B00B8B80000180E
(1712462172.989212) vcan0 596#837A00004C000B0B
(1712462172.989462) vcan0 597#815E010000000000
(1712462172.989722) vcan0 598#00000000EB357F12
(1712462172.989972) vcan0 599#0800000000000000
(1712462172.990232) vcan0 59C#0000000000000000
(1712462172.990492) vcan0 59E#00000000180E0000
(1712462172.990742) vcan0 5A3#0F0000004B714B71
(1712462172.990912) vcan0 5D5#000000A0C8C80004
(1712462172.991172) vcan0 5D6#B8B800000B0B3AAB
(1712462172.991422) vcan0 5D7#0200000000000000
(1712462172.991682) vcan0 5D8#806404005E01180E
(1712462173.087342) vcan0 594#34213421A0610420
(1712462173.087592) vcan0 491#4C0000000000000F
(1712462173.087852) vcan0 493#000C207000005807
(1712462173.088022) vcan0 4DD#0000000000000100
(1712462173.088282) vcan0 4DE#007F0B00F0C41E00
(1712462173.088532) vcan0 4E2#C0036A040000C19E
(1712462173.088792) vcan0 542#640B00000000FFFF
(1712462173.089052) vcan0 595#0B00B8B80000180E
(1712462173.089222) vcan0 596#917A00004C000B0B
(1712462173.089472) vcan0 597#015E010000000000
(1712462173.089732) vcan0 598#00000000EB357F12
(1712462173.089982) vcan0 599#0800000000000000
(1712462173.090242) vcan0 59C#0000000000000000
(1712462173.090502) vcan0 59E#00000000180E0000
(1712462173.090752) vcan0 5A3#0F0000004B714B71
(1712462173.090922) vcan0 5D5#000000A0C8C80004
(1712462173.091182) vcan0 5D6#B8B800000B0B8355
(1712462173.091432) vcan0 5D7#0200000000000000
(1712462173.091692) vcan0 5D8#806404005E01180E
(1712462173.187352) vcan0 594#34213421A0610420
(1712462173.187612) vcan0 491#4C0000000000000F
(1712462173.187782) vcan0 493#000C207000005807
(1712462173.188032) vcan0 4DD#0000000000000100
(1712462173.188292) vcan0 4DE#007F0B00F0C41E00
(1712462173.188542) vcan0 4E2#C0036A040000C19E
(1712462173.188802) vcan0 542#640B00000000FFFF
(1712462173.188972) vcan0 595#0B00B8B80000180E
(1712462173.189232) vcan0 596#A97A00004C000B0B
(1712462173.189482) vcan0 597#815E010000000000
(1712462173.189742) vcan0 598#00000000EB357F12
(1712462173.189992) vcan0 599#0800000000000000
(1712462173.190252) vcan0 59C#0000000000000000
(1712462173.190512) vcan0 59E#00000000180E0000
(1712462173.190682) vcan0 5A3#0F0000004B714B71
(1712462173.190932) vcan0 5D5#000000A0C8C80004
(1712462173.191192) vcan0 5D6#B8B800000B0B8355
(1712462173.191452) vcan0 5D7#0200000000000000
(1712462173.191702) vcan0 5D8#806404005E01180E
(1712462173.268672) vcan0 7E4#023E000000000000
(1712462173.273962) vcan0 7EC#027E00AAAAAAAAAA
(1712462173.287362) vcan0 594#34213421A0610420
(1712462173.287532) vcan0 491#4C0000000000000F
(1712462173.287792) vcan0 493#000C207000005807
(1712462173.288042) vcan0 4DD#0000000000000100
(1712462173.288302) vcan0 4DE#007F0B00F0C41E00
(1712462173.288552) vcan0 4E2#C0036A040000C19E
(1712462173.288812) vcan0 542#640B00000000FFFF
(1712462173.288982) vcan0 595#0B00B8B80000180E
(1712462173.289242) vcan0 596#157A00004C000B0B
(1712462173.289492) vcan0 597#015E010000000000
(1712462173.289752) vcan0 598#00000000EB357F12
(1712462173.290012) vcan0 599#0800000000000000
(1712462173.290262) vcan0 59C#0000000000000000
(1712462173.290522) vcan0 59E#00000000180E0000
(1712462173.290692) vcan0 5A3#0F0000004B714B71
(1712462173.290942) vcan0 5D5#000000A0C8C80004
(1712462173.291202) vcan0 5D6#B8B800000B0BA9AB
(1712462173.291462) vcan0 5D7#0200000000000000
(1712462173.291712) vcan0 5D8#806404005E01180E
(1712462173.387372) vcan0 594#34213421A0610420
(1712462173.387542) vcan0 3F6#1800000000000000
(1712462173.387802) vcan0 491#4C0000000000000F
(1712462173.388052) vcan0 493#000C207000005807
(1712462173.388312) vcan0 497#140000B400000000
(1712462173.388572) vcan0 498#0000000000000000
(1712462173.388822) vcan0 4DD#0000000000000100
(1712462173.388992) vcan0 4DE#007F0B00F0C41E00
(1712462173.389252) vcan0 4E2#C0036A040000C19E
(1712462173.389502) vcan0 542#640B00000000FFFF
(1712462173.389762) vcan0 595#0B00B8B80000180E
(1712462173.390022) vcan0 596#217A00004C000B0B
(1712462173.390272) vcan0 597#815E010000000000
(1712462173.390442) vcan0 598#00000000EB357F12
(1712462173.390702) vcan0 599#0800000000000000
(1712462173.390952) vcan0 59C#0000000000000000
(1712462173.391212) vcan0 59E#00000000180E0000
(1712462173.391472) vcan0 5A3#0F0000004B714B71
(1712462173.391722) vcan0 5D5#000000A0C8C80004
(1712462173.391892) vcan0 5D6#B8B800000B0BA9AB
(1712462173.392152) vcan0 5D7#0200000000000000
(1712462173.392412) vcan0 5D8#806404005E01180E
(1712462173.487302) vcan0 594#34213421A0610420
(1712462173.487552) vcan0 491#4C0000000000000F
(1712462173.487812) vcan0 493#000C207000005807
(1712462173.488062) vcan0 4DD#0000000000000100
(1712462173.488322) vcan0 4DE#007F0B00F0C41E00
(1712462173.488492) vcan0 4E2#C0036A040000C19E
(1712462173.488752) vcan0 542#640B00000000FFFF
(1712462173.489002) vcan0 595#0B00B8B80000180E
(1712462173.489262) vcan0 596#227A00004C000B0B
(1712462173.489512) vcan0 597#015E010000000000
(1712462173.489772) vcan0 598#00000000EB357F12
(1712462173.490032) vcan0 599#0800000000000000
(1712462173.490202) vcan0 59C#0000000000000000
(1712462173.490452) vcan0 59E#00000000180E0000
(1712462173.490712) vcan0 5A3#0F0000004B714B71
(1712462173.490972) vcan0 5D5#000000A0C8C80004
(1712462173.491222) vcan0 5D6#B8B800000B0B2155
(1712462173.491392) vcan0 5D7#0200000000000000
(1712462173.491652) vcan0 5D8#806404005E01180E
(1712462173.587312) vcan0 594#34213421A0610420
(1712462173.587562) vcan0 491#4C0000000000000F
(1712462173.587822) vcan0 493#000C207000005807
(1712462173.588072) vcan0 4DD#0000000000000100
(1712462173.588332) vcan0 4DE#007F0B00F0C41E00
(1712462173.588502) vcan0 4E2#C0036A040000C19E
(1712462173.588762) vcan0 542#640B00000000FFFF
(1712462173.589012) vcan0 595#0B00B8B80000180E
(1712462173.589272) vcan0 596#257A00004C000B0B
(1712462173.589532) vcan0 597#815E010000000000
(1712462173.589702) vcan0 598#00000000EB357F12
(1712462173.589952) vcan0 599#0800000000000000
(1712462173.590212) vcan0 59C#0000000000000000
(1712462173.590462) vcan0 59E#00000000180E0000
(1712462173.590722) vcan0 5A3#0F0000004B714B71
(1712462173.590982) vcan0 5D5#000000A0C8C80004
(1712462173.591152) vcan0 5D6#B8B800000B0B2155
(1712462173.591402) vcan0 5D7#0200000000000000
(1712462173.591662) vcan0 5D8#806404005E01180E
(1712462173.687322) vcan0 594#34213421A0610420
(1712462173.687572) vcan0 491#4C0000000000000F
(1712462173.687832) vcan0 493#000C207000005807
(1712462173.688092) vcan0 4DD#0000000000000100
(1712462173.688262) vcan0 4DE#007F0B00F0C41E00
(1712462173.688512) vcan0 4E2#C0036A040000C19E
(1712462173.688772) vcan0 542#640B00000000FFFF
(1712462173.689022) vcan0 595#0B00B8B80000180E
(1712462173.689192) vcan0 596#2D7A00004C000B0B
(1712462173.689452) vcan0 597#015E010000000000
(1712462173.689712) vcan0 598#00000000EB357F12
(1712462173.689962) vcan0 599#0800000000000000
(1712462173.690222) vcan0 59C#0000000000000000
(1712462173.690472) vcan0 59E#00000000180E0000
(1712462173.690732) vcan0 5A3#0F0000004B714B71
(1712462173.690992) vcan0 5D5#000000A0C8C80004
(1712462173.691162) vcan0 5D6#B8B800000B0B25AB
(1712462173.691412) vcan0 5D7#0200000000000000
(1712462173.691672) vcan0 5D8#806404005E01180E
(1712462173.787332) vcan0 594#34213421A0610420
(1712462173.787582) vcan0 491#4C0000000000000F
(1712462173.787842) vcan0 493#000C207000005807
(1712462173.788012) vcan0 4DD#0000000000000100
(1712462173.788272) vcan0 4DE#007F0B00F0C41E00
(1712462173.788522) vcan0 4E2#C0036A040000C19E
(1712462173.788782) vcan0 542#640B00000000FFFF
(1712462173.789032) vcan0 595#0B00B8B80000180E
(1712462173.789212) vcan0 596#387A00004C000B0B
(1712462173.789462) vcan0 597#815E010000000000
(1712462173.789722) vcan0 598#00000000EB357F12
(1712462173.789972) vcan0 599#0800000000000000
(1712462173.790232) vcan0 59C#0000000000000000
(1712462173.790492) vcan0 59E#00000000180E0000
(1712462173.790742) vcan0 5A3#0F0000004B714B71
(1712462173.790912) vcan0 5D5#000000A0C8C80004
(1712462173.791172) vcan0 5D6#B8B800000B0B25AB
(1712462173.791422) vcan0 5D7#0200000000000000
(1712462173.791682) vcan0 5D8#806404005E01180E
(1712462173.887342) vcan0 594#34213421A0610420
(1712462173.887592) vcan0 491#4C0000000000000F
(1712462173.887772) vcan0 493#000C207000005807
(1712462173.888022) vcan0 4DD#0000000000000100
(1712462173.888282) vcan0 4DE#007F0B00F0C41E00
(1712462173.888532) vcan0 4E2#C0036A040000C19E
(1712462173.888792) vcan0 542#640B00000000FFFF
(1712462173.889052) vcan0 595#0B00B8B80000180E
(1712462173.889222) vcan0 596#3A7A00004C000B0B
(1712462173.889472) vcan0 597#015E010000000000
(1712462173.889732) vcan0 598#00000000EB357F12
(1712462173.889982) vcan0 599#0800000000000000
(1712462173.890242) vcan0 59C#0000000000000000
(1712462173.890502) vcan0 59E#00000000180E0000
(1712462173.890752) vcan0 5A3#0F0000004B714B71
(1712462173.890922) vcan0 5D5#000000A0C8C80004
(1712462173.891182) vcan0 5D6#B8B800000B0B3855
(1712462173.891432) vcan0 5D7#0200000000000000
(1712462173.891692) vcan0 5D8#806404005E01180E
(1712462173.987352) vcan0 594#34213421A0610420
(1712462173.987522) vcan0 491#4C0000000000000F
(1712462173.987782) vcan0 493#000C207000005807
(1712462173.988032) vcan0 4DD#0000000000000100
(1712462173.988292) vcan0 4DE#007F0B00F0C41E00
(1712462173.988542) vcan0 4E2#C0036A040000C19E
(1712462173.988802) vcan0 542#640B00000000FFFF
(1712462173.988972) vcan0 595#0B00B8B80000180E
(1712462173.989232) vcan0 596#767A00004C000B0B
(1712462173.989482) vcan0 597#815E010000000000
(1712462173.989742) vcan0 598#00000000EB357F12
(1712462173.989992) vcan0 599#0800000000000000
(1712462173.990252) vcan0 59C#0000000000000000
(1712462173.990512) vcan0 59E#00000000180E0000
(1712462173.990682) vcan0 5A3#0F0000004B714B71
(1712462173.990932) vcan0 5D5#000000A0C8C80004
(1712462173.991192) vcan0 5D6#B8B800000B0B3855
(1712462173.991452) vcan0 5D7#0200000000000000
(1712462173.991702) vcan0 5D8#806404005E01180E
(1712462174.087362) vcan0 594#34213421A0610420
(1712462174.087532) vcan0 491#4C0000000000000F
(1712462174.087792) vcan0 493#000C207000005807
(1712462174.088042) vcan0 4DD#0000000000000100
(1712462174.088302) vcan0 4DE#007F0B00F0C41E00
(1712462174.088552) vcan0 4E2#C0036A040000C19E
(1712462174.088812) vcan0 542#640B00000000FFFF
(1712462174.088982) vcan0 595#0B00B8B80000180E
(1712462174.089242) vcan0 596#837A00004C000B0B
(1712462174.089492) vcan0 597#015E010000000000
(1712462174.089752) vcan0 598#00000000EB357F12
(1712462174.090012) vcan0 599#0800000000000000
(1712462174.090262) vcan0 59C#0000000000000000
(1712462174.090522) vcan0 59E#00000000180E0000
(1712462174.090692) vcan0 5A3#0F0000004B714B71
(1712462174.090942) vcan0 5D5#000000A0C8C80004
(1712462174.091202) vcan0 5D6#B8B800000B0B76AB
(1712462174.091462) vcan0 5D7#0200000000000000
(1712462174.091712) vcan0 5D8#806404005E01180E
(1712462174.187292) vcan0 594#34213421A0610420
(1712462174.187542) vcan0 491#4C0000000000000F
(1712462174.187802) vcan0 493#000C207000005807
(1712462174.188052) vcan0 4DD#0000000000000100
(1712462174.188312) vcan0 4DE#007F0B00F0C41E00
(1712462174.188482) vcan0 4E2#C0036A040000C19E
(1712462174.188742) vcan0 542#640B00000000FFFF
(1712462174.188992) vcan0 595#0B00B8B80000180E
(1712462174.189252) vcan0 596#917A00004C000B0B
(1712462174.189502) vcan0 597#815E010000000000
(1712462174.189762) vcan0 598#00000000EB357F12
(1712462174.189932) vcan0 599#0800000000000000
(1712462174.190192) vcan0 59C#0000000000000000
(1712462174.190442) vcan0 59E#00000000180E0000
(1712462174.190702) vcan0 5A3#0F0000004B714B71
(1712462174.190952) vcan0 5D5#000000A0C8C80004
(1712462174.191212) vcan0 5D6#B8B800000B0B76AB
(1712462174.191382) vcan0 5D7#0200000000000000
(1712462174.191642) vcan0 5D8#806404005E01180E
(1712462174.287302) vcan0 594#34213421A0610420
(1712462174.287552) vcan0 491#4C0000000000000F
(1712462174.287812) vcan0 493#000C207000005807
(1712462174.288062) vcan0 4DD#0000000000000100
(1712462174.288322) vcan0 4DE#007F0B00F0C41E00
(1712462174.288492) vcan0 4E2#C0036A040000C19E
(1712462174.288752) vcan0 542#640B00000000FFFF
(1712462174.289002) vcan0 595#0B00B8B80000180E
(1712462174.289262) vcan0 596#A97A00004C000B0B
(1712462174.289512) vcan0 597#015E010000000000
(1712462174.289692) vcan0 598#00000000EB357F12
(1712462174.289942) vcan0 599#0800000000000000
(1712462174.290202) vcan0 59C#0000000000000000
(1712462174.290452) vcan0 59E#00000000180E0000
(1712462174.290712) vcan0 5A3#0F0000004B714B71
(1712462174.290972) vcan0 5D5#000000A0C8C80004
(1712462174.291142) vcan0 5D6#B8B800000B0B9155
(1712462174.291392) vcan0 5D7#0200000000000000
(1712462174.291652) vcan0 5D8#806404005E01180E
(1712462174.387312) vcan0 594#34213421A0610420
(1712462174.387562) vcan0 3F6#1800000000000000
(1712462174.387822) vcan0 491#4C0000000000000F
(1712462174.388072) vcan0 493#000C207000005807
(1712462174.388332) vcan0 497#220000B400000000
(1712462174.388502) vcan0 498#0000000000000000
(1712462174.388762) vcan0 4DD#0000000000000100
(1712462174.389012) vcan0 4DE#007F0B00F0C41E00
(1712462174.389272) vcan0 4E2#C0036A040000C19E
(1712462174.389532) vcan0 542#640B00000000FFFF
(1712462174.389782) vcan0 595#0B00B8B80000180E
(1712462174.389952) vcan0 596#157A00004C000B0B
(1712462174.390212) vcan0 597#815E010000000000
(1712462174.390462) vcan0 598#00000000EB357F12
(1712462174.390722) vcan0 599#0800000000000000
(1712462174.390982) vcan0 59C#0000000000000000
(1712462174.391232) vcan0 59E#00000000180E0000
(1712462174.391492) vcan0 5A3#0F0000004B714B71
(1712462174.391662) vcan0 5D5#000000A0C8C80004
(1712462174.391912) vcan0 5D6#B8B800000B0B9155
(1712462174.392172) vcan0 5D7#0200000000000000
(1712462174.392432) vcan0 5D8#806404005E01180E
(1712462174.487322) vcan0 594#34213421A0610420
(1712462174.487572) vcan0 491#4C0000000000000F
(1712462174.487832) vcan0 493#000C207000005807
(1712462174.488092) vcan0 4DD#0000000000000100
(1712462174.488262) vcan0 4DE#007F0B00F0C41E00
(1712462174.488512) vcan0 4E2#C0036A040000C19E
(1712462174.488772) vcan0 542#640B00000000FFFF
(1712462174.489022) vcan0 595#0B00B8B80000180E
(1712462174.489282) vcan0 596#217A00004C000B0B
(1712462174.489452) vcan0 597#015E010000000000
(1712462174.489712) vcan0 598#00000000EB357F12
(1712462174.489962) vcan0 599#0800000000000000
(1712462174.490222) vcan0 59C#0000000000000000
(1712462174.490472) vcan0 59E#00000000180E0000
(1712462174.490732) vcan0 5A3#0F0000004B714B71
(1712462174.490992) vcan0 5D5#000000A0C8C80004
(1712462174.491162) vcan0 5D6#B8B800000B0B15AB
(1712462174.491412) vcan0 5D7#0200000000000000
(1712462174.491672) vcan0 5D8#806404005E01180E
(1712462174.587332) vcan0 594#34213421A0610420
(1712462174.587582) vcan0 491#4C0000000000000F
(1712462174.587842) vcan0 493#000C207000005807
(1712462174.588012) vcan0 4DD#0000000000000100
(1712462174.588272) vcan0 4DE#007F0B00F0C41E00
(1712462174.588522) vcan0 4E2#C0036A040000C19E
(1712462174.588782) vcan0 542#640B00000000FFFF
(1712462174.589032) vcan0 595#0B00B8B80000180E
(1712462174.589212) vcan0 596#227A00004C000B0B
(1712462174.589462) vcan0 597#815E010000000000
(1712462174.589722) vcan0 598#00000000EB357F12
(1712462174.589972) vcan0 599#0800000000000000
(1712462174.590232) vcan0 59C#0000000000000000
(1712462174.590492) vcan0 59E#00000000180E0000
(1712462174.590742) vcan0 5A3#0F0000004B714B71
(1712462174.590912) vcan0 5D5#000000A0C8C80004
(1712462174.591172) vcan0 5D6#B8B800000B0B15AB
(1712462174.591422) vcan0 5D7#0200000000000000
(1712462174.591682) vcan0 5D8#806404005E01180E
(1712462174.687342) vcan0 594#34213421A0610420
(1712462174.687592) vcan0 491#4C0000000000000F
(1712462174.687772) vcan0 493#000C207000005807
(1712462174.688022) vcan0 4DD#0000000000000100
(1712462174.688282) vcan0 4DE#007F0B00F0C41E00
(1712462174.688532) vcan0 4E2#C0036A040000C19E
(1712462174.688792) vcan0 542#640B00000000FFFF
(1712462174.689052) vcan0 595#0B00B8B80000180E
(1712462174.689222) vcan0 596#257A00004C000B0B
(1712462174.689472) vcan0 597#015E010000000000
(1712462174.689732) vcan0 598#00000000EB357F12
(1712462174.689982) vcan0 599#0800000000000000
(1712462174.690242) vcan0 59C#0000000000000000
(1712462174.690502) vcan0 59E#00000000180E0000
(1712462174.690672) vcan0 5A3#0F0000004B714B71
(1712462174.690922) vcan0 5D5#000000A0C8C80004
(1712462174.691182) vcan0 5D6#B8B800000B0B2255
(1712462174.691432) vcan0 5D7#0200000000000000
(1712462174.691692) vcan0 5D8#806404005E01180E
(1712462174.787352) vcan0 594#34213421A0610420
(1712462174.787522) vcan0 491#4C0000000000000F
(1712462174.787782) vcan0 493#000C207000005807
(1712462174.788032) vcan0 4DD#0000000000000100
(1712462174.788292) vcan0 4DE#007F0B00F0C41E00
(1712462174.788542) vcan0 4E2#C0036A040000C19E
(1712462174.788802) vcan0 542#640B00000000FFFF
(1712462174.788972) vcan0 595#0B00B8B80000180E
(1712462174.789232) vcan0 596#2D7A00004C000B0B
(1712462174.789482) vcan0 597#815E010000000000
(1712462174.789742) vcan0 598#00000000EB357F12
(1712462174.789992) vcan0 599#0800000000000000
(1712462174.790252) vcan0 59C#0000000000000000
(1712462174.790512) vcan0 59E#00000000180E0000
(1712462174.790682) vcan0 5A3#0F0000004B714B71
(1712462174.790932) vcan0 5D5#000000A0C8C80004
(1712462174.791192) vcan0 5D6#B8B800000B0B2255
(1712462174.791452) vcan0 5D7#0200000000000000
(1712462174.791702) vcan0 5D8#806404005E01180E
(1712462174.887272) vcan0 594#34213421A0610420
(1712462174.887532) vcan0 491#4C0000000000000F
(1712462174.887792) vcan0 493#000C207000005807
(1712462174.888042) vcan0 4DD#0000000000000100
(1712462174.888302) vcan0 4DE#007F0B00F0C41E00
(1712462174.888472) vcan0 4E2#C0036A040000C19E
(1712462174.888732) vcan0 542#640B00000000FFFF
(1712462174.888982) vcan0 595#0B00B8B80000180E
(1712462174.889242) vcan0 596#387A00004C000B0B
(1712462174.889492) vcan0 597#015E010000000000
(1712462174.889752) vcan0 598#00000000EB357F12
(1712462174.890012) vcan0 599#0800000000000000
(1712462174.890262) vcan0 59C#0000000000000000
(1712462174.890432) vcan0 59E#00000000180E0000
(1712462174.890692) vcan0 5A3#0F0000004B714B71
(1712462174.890942) vcan0 5D5#000000A0C8C80004
(1712462174.891202) vcan0 5D6#B8B800000B0B2DAB
(1712462174.891462) vcan0 5D7#0200000000000000
(1712462174.891632) vcan0 5D8#806404005E01180E
(1712462174.987292) vcan0 594#34213421A0610420
(1712462174.987542) vcan0 491#4C0000000000000F
(1712462174.987802) vcan0 493#000C207000005807
(1712462174.988052) vcan0 4DD#0000000000000100
(1712462174.988312) vcan0 4DE#007F0B00F0C41E00
(1712462174.988482) vcan0 4E2#C0036A040000C19E
(1712462174.988742) vcan0 542#640B00000000FFFF
(1712462174.988992) vcan0 595#0B00B8B80000180E
(1712462174.989252) vcan0 596#3A7A00004C000B0B
(1712462174.989502) vcan0 597#815E010000000000
(1712462174.989672) vcan0 598#00000000EB357F12
(1712462174.989932) vcan0 599#0800000000000000
(1712462174.990192) vcan0 59C#0000000000000000
(1712462174.990442) vcan0 59E#00000000180E0000
(1712462174.990702) vcan0 5A3#0F0000004B714B71
(1712462174.990952) vcan0 5D5#000000A0C8C80004
(1712462174.991212) vcan0 5D6#B8B800000B0B2DAB
(1712462174.991382) vcan0 5D7#0200000000000000
(1712462174.991642) vcan0 5D8#806404005E01180E
(1712462175.087302) vcan0 594#34213421A0610420
(1712462175.087552) vcan0 491#4C0000000000000F
(1712462175.087812) vcan0 493#000C207000005807
(1712462175.088062) vcan0 4DD#0000000000000100
(1712462175.088322) vcan0 4DE#007F0B00F0C41E00
(1712462175.088492) vcan0 4E2#C0036A040000C19E
(1712462175.088752) vcan0 542#640B00000000FFFF
(1712462175.089002) vcan0 595#0B00B8B80000180E
(1712462175.089262) vcan0 596#767A00004C000B0B
(1712462175.089512) vcan0 597#015E010000000000
(1712462175.089692) vcan0 598#00000000EB357F12
(1712462175.089942) vcan0 599#0800000000000000
(1712462175.090202) vcan0 59C#0000000000000000
(1712462175.090452) vcan0 59E#00000000180E0000
(1712462175.090712) vcan0 5A3#0F0000004B714B71
(1712462175.090972) vcan0 5D5#000000A0C8C80004
(1712462175.091142) vcan0 5D6#B8B800000B0B3A55
(1712462175.091392) vcan0 5D7#0200000000000000
(1712462175.091652) vcan0 5D8#806404005E01180E
(1712462175.187312) vcan0 594#34213421A0610420
(1712462175.187562) vcan0 491#4C0000000000000F
(1712462175.187822) vcan0 493#000C207000005807
(1712462175.188072) vcan0 4DD#0000000000000100
(1712462175.188252) vcan0 4DE#007F0B00F0C41E00
(1712462175.188502) vcan0 4E2#C0036A040000C19E
(1712462175.188762) vcan0 542#640B00000000FFFF
(1712462175.189012) vcan0 595#0B00B8B80000180E
(1712462175.189272) vcan0 596#837A00004C000B0B
(1712462175.189442) vcan0 597#815E010000000000
(1712462175.189702) vcan0 598#00000000EB357F12
(1712462175.189952) vcan0 599#0800000000000000
(1712462175.190212) vcan0 59C#0000000000000000
(1712462175.190462) vcan0 59E#00000000180E0000
(1712462175.190722) vcan0 5A3#0F0000004B714B71
(1712462175.190982) vcan0 5D5#000000A0C8C80004
(1712462175.191152) vcan0 5D6#B8B800000B0B3A55
(1712462175.191402) vcan0 5D7#0200000000000000
(1712462175.191662) vcan0 5D8#806404005E01180E
(1712462175.283652) vcan0 7E4#023E000000000000
(1712462175.287322) vcan0 594#34213421A0610420
(1712462175.287572) vcan0 491#4C0000000000000F
(1712462175.287832) vcan0 493#000C207000005807
(1712462175.288002) vcan0 4DD#0000000000000100
(1712462175.288262) vcan0 4DE#007F0B00F0C41E00
(1712462175.288512) vcan0 4E2#C0036A040000C19E
(1712462175.288772) vcan0 542#640B00000000FFFF
(1712462175.289022) vcan0 595#0B00B8B80000180E
(1712462175.289192) vcan0 596#917A00004C000B0B
(1712462175.289452) vcan0 597#015E010000000000
(1712462175.289712) vcan0 598#00000000EB357F12
(1712462175.289962) vcan0 599#0800000000000000
(1712462175.290222) vcan0 59C#0000000000000000
(1712462175.290472) vcan0 59E#00000000180E0000
(1712462175.290732) vcan0 5A3#0F0000004B714B71
(1712462175.290902) vcan0 5D5#000000A0C8C80004
(1712462175.291162) vcan0 5D6#B8B800000B0B83AB
(1712462175.291412) vcan0 5D7#0200000000000000
(1712462175.291672) vcan0 5D8#806404005E01180E
(1712462175.291932) vcan0 7EC#027E00AAAAAAAAAA
(1712462175.387332) vcan0 594#34213421A0610420
(1712462175.387582) vcan0 3F6#1800000000000000
(1712462175.387842) vcan0 491#4C0000000000000F
(1712462175.388012) vcan0 493#000C207000005807
(1712462175.388272) vcan0 497#110000B400000000
(1712462175.388522) vcan0 498#0000000000000000
(1712462175.388782) vcan0 4DD#0000000000000100
(1712462175.389032) vcan0 4DE#007F0B00F0C41E00
(1712462175.389212) vcan0 4E2#C0036A040000C19E
(1712462175.389462) vcan0 542#640B00000000FFFF
(1712462175.389722) vcan0 595#0B00B8B80000180E
(1712462175.389972) vcan0 596#A97A00004C000B0B
(1712462175.390232) vcan0 597#815E010000000000
(1712462175.390492) vcan0 598#00000000EB357F12
(1712462175.390742) vcan0 599#0800000000000000
(1712462175.391002) vcan0 59C#0000000000000000
(1712462175.391172) vcan0 59E#00000000180E0000
(1712462175.391422) vcan0 5A3#0F0000004B714B71
(1712462175.391682) vcan0 5D5#000000A0C8C80004
(1712462175.391942) vcan0 5D6#B8B800000B0B83AB
(1712462175.392192) vcan0 5D7#0200000000000000
(1712462175.392362) vcan0 5D8#806404005E01180E
(1712462175.487342) vcan0 594#34213421A0610420
(1712462175.487512) vcan0 491#4C0000000000000F
(1712462175.487772) vcan0 493#000C207000005807
(1712462175.488022) vcan0 4DD#0000000000000100
(1712462175.488282) vcan0 4DE#007F0B00F0C41E00
(1712462175.488532) vcan0 4E2#C0036A040000C19E
(1712462175.488792) vcan0 542#640B00000000FFFF
(1712462175.488962) vcan0 595#0B00B8B80000180E
(1712462175.489222) vcan0 596#157A00004C000B0B
(1712462175.489472) vcan0 597#015E010000000000
(1712462175.489732) vcan0 598#00000000EB357F12
(1712462175.489982) vcan0 599#0800000000000000
(1712462175.490242) vcan0 59C#0000000000000000
(1712462175.490502) vcan0 59E#00000000180E0000
(1712462175.490672) vcan0 5A3#0F0000004B714B71
(1712462175.490922) vcan0 5D5#000000A0C8C80004
(1712462175.491182) vcan0 5D6#B8B800000B0BA955
(1712462175.491432) vcan0 5D7#0200000000000000
(1712462175.491692) vcan0 5D8#806404005E01180E
(1712462175.587262) vcan0 594#34213421A0610420
(1712462175.587522) vcan0 491#4C0000000000000F
(1712462175.587782) vcan0 493#000C207000005807
(1712462175.588032) vcan0 4DD#0000000000000100
(1712462175.588292) vcan0 4DE#007F0B00F0C41E00
(1712462175.588542) vcan0 4E2#C0036A040000C19E
(1712462175.588712) vcan0 542#640B00000000FFFF
(1712462175.588972) vcan0 595#0B00B8B80000180E
(1712462175.589232) vcan0 596#217A00004C000B0B
(1712462175.589482) vcan0 597#815E010000000000
(1712462175.589742) vcan0 598#00000000EB357F12
(1712462175.589992) vcan0 599#0800000000000000
(1712462175.590252) vcan0 59C#0000000000000000
(1712462175.590422) vcan0 59E#00000000180E0000
(1712462175.590682) vcan0 5A3#0F0000004B714B71
(1712462175.590932) vcan0 5D5#000000A0C8C80004
(1712462175.591192) vcan0 5D6#B8B800000B0BA955
(1712462175.591452) vcan0 5D7#0200000000000000
(1712462175.591622) vcan0 5D8#806404005E01180E
(1712462175.687272) vcan0 594#34213421A0610420
(1712462175.687532) vcan0 491#4C0000000000000F
(1712462175.687792) vcan0 493#000C207000005807
(1712462175.688042) vcan0 4DD#0000000000000100
(1712462175.688302) vcan0 4DE#007F0B00F0C41E00
(1712462175.688552) vcan0 4E2#C0036A040000C19E
(1712462175.688732) vcan0 542#640B00000000FFFF
(1712462175.688982) vcan0 595#0B00B8B80000180E
(1712462175.689242) vcan0 596#227A00004C000B0B
(1712462175.689492) vcan0 597#015E010000000000
(1712462175.689752) vcan0 598#00000000EB357F12
(1712462175.690012) vcan0 599#0800000000000000
(1712462175.690262) vcan0 59C#0000000000000000
(1712462175.690432) vcan0 59E#00000000180E0000
(1712462175.690692) vcan0 5A3#0F0000004B714B71
(1712462175.690942) vcan0 5D5#000000A0C8C80004
(1712462175.691202) vcan0 5D6#B8B800000B0B21AB
(1712462175.691462) vcan0 5D7#0200000000000000
(1712462175.691632) vcan0 5D8#806404005E01180E
(1712462175.787292) vcan0 594#34213421A0610420
(1712462175.787542) vcan0 491#4C0000000000000F
(1712462175.787802) vcan0 493#000C207000005807
(1712462175.788052) vcan0 4DD#0000000000000100
(1712462175.788312) vcan0 4DE#007F0B00F0C41E00
(1712462175.788482) vcan0 4E2#C0036A040000C19E
(1712462175.788742) vcan0 542#640B00000000FFFF
(1712462175.788992) vcan0 595#0B00B8B80000180E
(1712462175.789252) vcan0 596#257A00004C000B0B
(1712462175.789502) vcan0 597#815E010000000000
(1712462175.789672) vcan0 598#00000000EB357F12
(1712462175.789932) vcan0 599#0800000000000000
(1712462175.790192) vcan0 59C#0000000000000000
(1712462175.790442) vcan0 59E#00000000180E0000
(1712462175.790702) vcan0 5A3#0F0000004B714B71
(1712462175.790952) vcan0 5D5#000000A0C8C80004
(1712462175.791132) vcan0 5D6#B8B800000B0B21AB
(1712462175.791382) vcan0 5D7#0200000000000000
(1712462175.791642) vcan0 5D8#806404005E01180E
(1712462175.887302) vcan0 594#34213421A0610420
(1712462175.887552) vcan0 491#4C0000000000000F
(1712462175.887812) vcan0 493#000C207000005807
(1712462175.888062) vcan0 4DD#0000000000000100
(1712462175.888232) vcan0 4DE#007F0B00F0C41E00
(1712462175.888492) vcan0 4E2#C0036A040000C19E
(1712462175.888752) vcan0 542#640B00000000FFFF
(1712462175.889002) vcan0 595#0B00B8B80000180E
(1712462175.889262) vcan0 596#2D7A00004C000B0B
(1712462175.889512) vcan0 597#015E010000000000
(1712462175.889692) vcan0 598#00000000EB357F12
(1712462175.889942) vcan0 599#0800000000000000
(1712462175.890202) vcan0 59C#0000000000000000
(1712462175.890452) vcan0 59E#00000000180E0000
(1712462175.890712) vcan0 5A3#0F0000004B714B71
(1712462175.890972) vcan0 5D5#000000A0C8C80004
(1712462175.891142) vcan0 5D6#B8B800000B0B2555
(1712462175.891392) vcan0 5D7#0200000000000000
(1712462175.891652) vcan0 5D8#806404005E01180E
(1712462175.987312) vcan0 594#34213421A0610420
(1712462175.987562) vcan0 491#4C0000000000000F
(1712462175.987822) vcan0 493#000C207000005807
(1712462175.988072) vcan0 4DD#0000000000000100
(1712462175.988252) vcan0 4DE#007F0B00F0C41E00
(1712462175.988502) vcan0 4E2#C0036A040000C19E
(1712462175.988762) vcan0 542#640B00000000FFFF
(1712462175.989012) vcan0 595#0B00B8B80000180E
(1712462175.989272) vcan0 596#387A00004C000B0B
(1712462175.989442) vcan0 597#815E010000000000
(1712462175.989702) vcan0 598#00000000EB357F12
(1712462175.989952) vcan0 599#0800000000000000
(1712462175.990212) vcan0 59C#0000000000000000
(1712462175.990462) vcan0 59E#00000000180E0000
(1712462175.990722) vcan0 5A3#0F0000004B714B71
(1712462175.990892) vcan0 5D5#000000A0C8C80004
