(1712460289.825333) vcan0 594#34213421A0620120
(1712460289.825583) vcan0 491#4C0000000000000F
(1712460289.825843) vcan0 493#000C207000005807
(1712460289.826103) vcan0 4DD#0000000000000100
(1712460289.826353) vcan0 4DE#007F0B00F0C41E00
(1712460289.826523) vcan0 4E2#C00360040000C19E
(1712460289.826783) vcan0 542#650A00000000FFFF
(1712460289.827033) vcan0 595#0B00B8B80000180E
(1712460289.827293) vcan0 596#837C00004C000A0A
(1712460289.827553) vcan0 597#015E010000000000
(1712460289.827803) vcan0 598#0000000003367F12
(1712460289.828063) vcan0 599#0800000000000000
(1712460289.828233) vcan0 59C#0000000000000000
(1712460289.828493) vcan0 59E#00000000180E0000
(1712460289.828743) vcan0 5A3#0F00000034713471
(1712460289.829003) vcan0 5D5#000000A0C8C80004
(1712460289.829253) vcan0 5D6#B8B800000A0A76AB
(1712460289.829513) vcan0 5D7#0200000000000000
(1712460289.829683) vcan0 5D8#806504005E01180E
(1712460289.925343) vcan0 594#34213421A0620120
(1712460289.925593) vcan0 491#4C0000000000000F
(1712460289.925853) vcan0 493#000C207000005807
(1712460289.926113) vcan0 4DD#0000000000000100
(1712460289.926363) vcan0 4DE#007F0B00F0C41E00
(1712460289.926533) vcan0 4E2#C00360040000C19E
(1712460289.926793) vcan0 542#650A00000000FFFF
(1712460289.927053) vcan0 595#0B00B8B80000180E
(1712460289.927303) vcan0 596#917C00004C000A0A
(1712460289.927563) vcan0 597#815E010000000000
(1712460289.927733) vcan0 598#0000000003367F12
(1712460289.927983) vcan0 599#0800000000000000
(1712460289.928243) vcan0 59C#0000000000000000
(1712460289.928503) vcan0 59E#00000000180E0000
(1712460289.928753) vcan0 5A3#0F00000034713471
(1712460289.929013) vcan0 5D5#000000A0C8C80004
(1712460289.929263) vcan0 5D6#B8B800000A0A76AB
(1712460289.929433) vcan0 5D7#0200000000000000
(1712460289.929693) vcan0 5D8#806504005E01180E
(1712460290.025353) vcan0 594#34213421A0620120
(1712460290.025613) vcan0 491#4C0000000000000F
(1712460290.025863) vcan0 493#000C207000005807
(1712460290.026123) vcan0 4DD#0000000000000100
(1712460290.026293) vcan0 4DE#007F0B00F0C41E00
(1712460290.026543) vcan0 4E2#C00360040000C19E
(1712460290.026803) vcan0 542#650A00000000FFFF
(1712460290.027063) vcan0 595#0B00B8B80000180E
(1712460290.027313) vcan0 596#A97C00004C000A0A
(1712460290.027573) vcan0 597#015E010000000000
(1712460290.027743) vcan0 598#0000000003367F12
(1712460290.027993) vcan0 599#0800000000000000
(1712460290.028253) vcan0 59C#0000000000000000
(1712460290.028513) vcan0 59E#00000000180E0000
(1712460290.028763) vcan0 5A3#0F00000034713471
(1712460290.029023) vcan0 5D5#000000A0C8C80004
(1712460290.029273) vcan0 5D6#B8B800000A0A9155
(1712460290.029453) vcan0 5D7#0200000000000000
(1712460290.029703) vcan0 5D8#806504005E01180E
(1712460290.125363) vcan0 594#34213421A0620120
(1712460290.125623) vcan0 3F6#1800000000000000
(1712460290.125873) vcan0 491#4C0000000000000F
(1712460290.126133) vcan0 493#000C207000005807
(1712460290.126303) vcan0 497#140000B400000000
(1712460290.126553) vcan0 498#0000000000000000
(1712460290.126813) vcan0 4DD#0000000000000100
(1712460290.127073) vcan0 4DE#007F0B00F0C41E00
(1712460290.127323) vcan0 4E2#C00360040000C19E
(1712460290.127583) vcan0 542#650A00000000FFFF
(1712460290.127753) vcan0 595#0B00B8B80000180E
(1712460290.128013) vcan0 596#157C00004C000A0A
(1712460290.128263) vcan0 597#815E010000000000
(1712460290.128523) vcan0 598#0000000003367F12
(1712460290.128773) vcan0 599#0800000000000000
(1712460290.129033) vcan0 59C#0000000000000000
(1712460290.129293) vcan0 59E#00000000180E0000
(1712460290.129463) vcan0 5A3#0F00000034713471
(1712460290.129713) vcan0 5D5#000000A0C8C80004
(1712460290.129973) vcan0 5D6#B8B800000A0A9155
(1712460290.130223) vcan0 5D7#0200000000000000
(1712460290.130483) vcan0 5D8#806504005E01180E
(1712460290.225373) vcan0 594#34213421A0620120
(1712460290.225633) vcan0 491#4C0000000000000F
(1712460290.225803) vcan0 493#000C207000005807
(1712460290.226053) vcan0 4DD#0000000000000100
(1712460290.226313) vcan0 4DE#007F0B00F0C41E00
(1712460290.226573) vcan0 4E2#C00360040000C19E
(1712460290.226823) vcan0 542#650A00000000FFFF
(1712460290.227083) vcan0 595#0B00B8B80000180E
(1712460290.227253) vcan0 596#217C00004C000A0A
(1712460290.227503) vcan0 597#015E010000000000
(1712460290.227763) vcan0 598#0000000003367F12
(1712460290.228023) vcan0 599#0800000000000000
(1712460290.228273) vcan0 59C#0000000000000000
(1712460290.228533) vcan0 59E#00000000180E0000
(1712460290.228783) vcan0 5A3#0F00000034713471
(1712460290.228953) vcan0 5D5#000000A0C8C80004
(1712460290.229213) vcan0 5D6#B8B800000A0A15AB
(1712460290.229473) vcan0 5D7#0200000000000000
(1712460290.229723) vcan0 5D8#806504005E01180E
(1712460290.325383) vcan0 594#34213421A0620120
(1712460290.325553) vcan0 491#4C0000000000000F
(1712460290.325813) vcan0 493#000C207000005807
(1712460290.326063) vcan0 4DD#0000000000000100
(1712460290.326323) vcan0 4DE#007F0B00F0C41E00
(1712460290.326583) vcan0 4E2#C00360040000C19E
(1712460290.326833) vcan0 542#650A00000000FFFF
(1712460290.327003) vcan0 595#0B00B8B80000180E
(1712460290.327263) vcan0 596#227C00004C000A0A
(1712460290.327513) vcan0 597#815E010000000000
(1712460290.327773) vcan0 598#0000000003367F12
(1712460290.328033) vcan0 599#0800000000000000
(1712460290.328283) vcan0 59C#0000000000000000
(1712460290.328543) vcan0 59E#00000000180E0000
(1712460290.328713) vcan0 5A3#0F00000034713471
(1712460290.328973) vcan0 5D5#000000A0C8C80004
(1712460290.329223) vcan0 5D6#B8B800000A0A15AB
(1712460290.329483) vcan0 5D7#0200000000000000
(1712460290.329733) vcan0 5D8#806504005E01180E
(1712460290.355673) vcan0 7E4#023E000000000000
(1712460290.361993) vcan0 7EC#027E00AAAAAAAAAA
(1712460290.425393) vcan0 594#34213421A0620120
(1712460290.425563) vcan0 491#4C0000000000000F
(1712460290.425823) vcan0 493#000C207000005807
(1712460290.426073) vcan0 4DD#0000000000000100
(1712460290.426333) vcan0 4DE#007F0B00F0C41E00
(1712460290.426593) vcan0 4E2#C00360040000C19E
(1712460290.426763) vcan0 542#650A00000000FFFF
(1712460290.427013) vcan0 595#0B00B8B80000180E
(1712460290.427273) vcan0 596#257C00004C000A0A
(1712460290.427533) vcan0 597#015E010000000000
(1712460290.427783) vcan0 598#0000000003367F12
(1712460290.428043) vcan0 599#0800000000000000
(1712460290.428293) vcan0 59C#0000000000000000
(1712460290.428553) vcan0 59E#00000000180E0000
(1712460290.428723) vcan0 5A3#0F00000034713471
(1712460290.428983) vcan0 5D5#000000A0C8C80004
(1712460290.429233) vcan0 5D6#B8B800000A0A2255
(1712460290.429493) vcan0 5D7#0200000000000000
(1712460290.429743) vcan0 5D8#806504005E01180E
(1712460290.525323) vcan0 594#34213421A0620120
(1712460290.525573) vcan0 491#4C0000000000000F
(1712460290.525833) vcan0 493#000C207000005807
(1712460290.526093) vcan0 4DD#0000000000000100
(1712460290.526343) vcan0 4DE#007F0B00F0C41E00
(1712460290.526513) vcan0 4E2#C00360040000C19E
(1712460290.526773) vcan0 542#650A00000000FFFF
(1712460290.527023) vcan0 595#0B00B8B80000180E
(1712460290.527283) vcan0 596#2D7C00004C000A0A
(1712460290.527543) vcan0 597#815E010000000000
(1712460290.527793) vcan0 598#0000000003367F12
(1712460290.528053) vcan0 599#0800000000000000
(1712460290.528303) vcan0 59C#0000000000000000
(1712460290.528473) vcan0 59E#00000000180E0000
(1712460290.528733) vcan0 5A3#0F00000034713471
(1712460290.528993) vcan0 5D5#000000A0C8C80004
(1712460290.529243) vcan0 5D6#B8B800000A0A2255
(1712460290.529503) vcan0 5D7#0200000000000000
(1712460290.529673) vcan0 5D8#806504005E01180E
(1712460290.625333) vcan0 594#34213421A0620120
(1712460290.625583) vcan0 491#4C0000000000000F
(1712460290.625843) vcan0 493#000C207000005807
(1712460290.626103) vcan0 4DD#0000000000000100
(1712460290.626353) vcan0 4DE#007F0B00F0C41E00
(1712460290.626523) vcan0 4E2#C00360040000C19E
(1712460290.626783) vcan0 542#650A00000000FFFF
(1712460290.627033) vcan0 595#0B00B8B80000180E
(1712460290.627293) vcan0 596#387C00004C000A0A
(1712460290.627553) vcan0 597#015E010000000000
(1712460290.627803) vcan0 598#0000000003367F12
(1712460290.627973) vcan0 599#0800000000000000
(1712460290.628233) vcan0 59C#0000000000000000
(1712460290.628493) vcan0 59E#00000000180E0000
(1712460290.628743) vcan0 5A3#0F00000034713471
(1712460290.629003) vcan0 5D5#000000A0C8C80004
(1712460290.629253) vcan0 5D6#B8B800000A0A2DAB
(1712460290.629513) vcan0 5D7#0200000000000000
(1712460290.629683) vcan0 5D8#806504005E01180E
(1712460290.725343) vcan0 594#34213421A0620120
(1712460290.725593) vcan0 491#4C0000000000000F
(1712460290.725853) vcan0 493#000C207000005807
(1712460290.726113) vcan0 4DD#0000000000000100
(1712460290.726283) vcan0 4DE#007F0B00F0C41E00
(1712460290.726533) vcan0 4E2#C00360040000C19E
(1712460290.726793) vcan0 542#650A00000000FFFF
(1712460290.727053) vcan0 595#0B00B8B80000180E
(1712460290.727303) vcan0 596#3A7C00004C000A0A
(1712460290.727563) vcan0 597#815E010000000000
(1712460290.727733) vcan0 598#0000000003367F12
(1712460290.727983) vcan0 599#0800000000000000
(1712460290.728243) vcan0 59C#0000000000000000
(1712460290.728503) vcan0 59E#00000000180E0000
(1712460290.728753) vcan0 5A3#0F00000034713471
(1712460290.729013) vcan0 5D5#000000A0C8C80004
(1712460290.729183) vcan0 5D6#B8B800000A0A2DAB
(1712460290.729433) vcan0 5D7#0200000000000000
(1712460290.729693) vcan0 5D8#806504005E01180E
(1712460290.761013) vcan0 7E4#042FF03203000000
(1712460290.766983) vcan0 7EC#046FF03203AAAAAA
(1712460290.825353) vcan0 594#34213421A0620120
(1712460290.825613) vcan0 491#4C0000000000000F
(1712460290.825783) vcan0 493#0008207000005807
(1712460290.826033) vcan0 4DD#0000000000000100
(1712460290.826293) vcan0 4DE#007F0B00F0C41E00
(1712460290.826543) vcan0 4E2#C00360040000C19E
(1712460290.826803) vcan0 542#650A00000000FFFF
(1712460290.827063) vcan0 595#0B00B8B80000180E
(1712460290.827233) vcan0 596#765500004C000A0A
(1712460290.827483) vcan0 597#015E010000000000
(1712460290.827743) vcan0 598#0000000003367F12
(1712460290.827993) vcan0 599#0800000000000000
(1712460290.828253) vcan0 59C#0000000000000000
(1712460290.828513) vcan0 59E#00000000180E0000
(1712460290.828763) vcan0 5A3#0F00000034713471
(1712460290.828933) vcan0 5D5#000000A0C8C80004
(1712460290.829023) vcan0 000#
(1712460291.035953) vcan0 594#6842684280720020
(1712460291.036123) vcan0 3F6#0400000000000000
(1712460291.036383) vcan0 491#000000000000000F
(1712460291.036633) vcan0 493#0008207000000000
(1712460291.036893) vcan0 497#1100000000000000
(1712460291.037153) vcan0 498#0000000000000000
(1712460291.037403) vcan0 4DD#0000000000000100
(1712460291.037663) vcan0 4DE#001E0B00F0C01E00
(1712460291.037913) vcan0 4E2#000000000000C11E
(1712460291.038093) vcan0 542#750A00000000FFFF
(1712460291.038343) vcan0 595#0000B9B90000320E
(1712460291.038603) vcan0 596#0053000000000A0A
(1712460291.038853) vcan0 597#8100000000000000
(1712460291.039113) vcan0 598#0000000000001E12
(1712460291.039373) vcan0 599#0800000000000000
(1712460291.039623) vcan0 59C#0000000000000000
(1712460291.039883) vcan0 59E#00000000320E0000
(1712460291.040133) vcan0 5A3#0F00000000000000
(1712460291.040303) vcan0 5D5#00000000C8C80004
(1712460291.040563) vcan0 5D6#B9B900000A0A00AA
(1712460291.040823) vcan0 5D7#0200000000000000
(1712460291.041073) vcan0 5D8#807504000000320E
(1712460291.135963) vcan0 594#6842684280720020
(1712460291.136223) vcan0 491#000000000000000F
(1712460291.136393) vcan0 493#0009207000000000
(1712460291.136653) vcan0 4DD#0000000000000100
(1712460291.136903) vcan0 4DE#001E0B00F0C01E00
(1712460291.137163) vcan0 4E2#000000000000C11E
(1712460291.137413) vcan0 542#750A00000000FFFF
(1712460291.137673) vcan0 595#0B00B8B80000180E
(1712460291.137843) vcan0 596#005C000000000A0A
(1712460291.138103) vcan0 597#0100000000000000
(1712460291.138353) vcan0 598#0000000000001E12
(1712460291.138613) vcan0 599#0800000000000000
(1712460291.138863) vcan0 59C#0000000000000000
(1712460291.139123) vcan0 59E#00000000180E0000
(1712460291.139383) vcan0 5A3#0F00000000000000
(1712460291.139633) vcan0 5D5#00000000C8C80004
(1712460291.139803) vcan0 5D6#B8B800000A0A0056
(1712460291.140063) vcan0 5D7#0200000000000000
(1712460291.140313) vcan0 5D8#807504000000180E
(1712460291.235973) vcan0 594#6842684280720020
(1712460291.236143) vcan0 491#000000000000000F
(1712460291.236403) vcan0 493#0009207000000000
(1712460291.236663) vcan0 4DD#0000000000000100
(1712460291.236913) vcan0 4DE#001E0B00F0C01E00
(1712460291.237173) vcan0 4E2#000000000000C11E
(1712460291.237423) vcan0 542#750A00000000FFFF
(1712460291.237593) vcan0 595#0B00B8B80000180E
(1712460291.237853) vcan0 596#0063000000000A0A
(1712460291.238113) vcan0 597#8100000000000000
(1712460291.238363) vcan0 598#0000000000001E12
(1712460291.238623) vcan0 599#0800000000000000
(1712460291.238873) vcan0 59C#0000000000000000
(1712460291.239133) vcan0 59E#00000000180E0000
(1712460291.239393) vcan0 5A3#0F00000000000000
(1712460291.239643) vcan0 5D5#000000A0C8C80004
(1712460291.239813) vcan0 5D6#B8B800000A0A0056
(1712460291.240073) vcan0 5D7#0200000000000000
(1712460291.240333) vcan0 5D8#807504000000180E
(1712460291.335903) vcan0 594#68426842A0720020
(1712460291.336153) vcan0 491#000000000000000F
(1712460291.336413) vcan0 493#000A207000000000
(1712460291.336673) vcan0 4DD#0000000000000100
(1712460291.336923) vcan0 4DE#001E0B00F0C01E00
(1712460291.337183) vcan0 4E2#000000000000C11E
(1712460291.337433) vcan0 542#750A00000000FFFF
(1712460291.337613) vcan0 595#0B00B8B80000180E
(1712460291.337863) vcan0 596#1569000000000A0A
(1712460291.338123) vcan0 597#0100000000000000
(1712460291.338373) vcan0 598#0000000000001E12
(1712460291.338633) vcan0 599#0800000000000000
(1712460291.338893) vcan0 59C#0000000000000000
(1712460291.339143) vcan0 59E#00000000180E0000
(1712460291.339403) vcan0 5A3#0F00000000000000
(1712460291.339573) vcan0 5D5#000000A0C8C80004
(1712460291.339823) vcan0 5D6#B8B800000A0A00AA
(1712460291.340083) vcan0 5D7#0200000000000000
(1712460291.340343) vcan0 5D8#807504000000180E
(1712460291.435913) vcan0 594#68426842A0620120
(1712460291.436173) vcan0 491#000000000000000F
(1712460291.436423) vcan0 493#000A207000000000
(1712460291.436683) vcan0 4DD#0000000000000100
(1712460291.436933) vcan0 4DE#001E0B00F0C01E00
(1712460291.437193) vcan0 4E2#000000000000C11E
(1712460291.437363) vcan0 542#650A00000000FFFF
(1712460291.437623) vcan0 595#0B00B8B80000180E
(1712460291.437873) vcan0 596#256D000000000A0A
(1712460291.438133) vcan0 597#8100000000000000
(1712460291.438383) vcan0 598#0000000000001E12
(1712460291.438643) vcan0 599#0800000000000000
(1712460291.438903) vcan0 59C#0000000000000000
(1712460291.439153) vcan0 59E#00000000180E0000
(1712460291.439413) vcan0 5A3#0F00000000000000
(1712460291.439583) vcan0 5D5#000000A0C8C80004
(1712460291.439833) vcan0 5D6#B8B800000A0A15AA
(1712460291.440093) vcan0 5D7#0200000000000000
(1712460291.440353) vcan0 5D8#806504000000180E
(1712460291.535923) vcan0 594#68426842A0620120
(1712460291.536183) vcan0 491#000000000000000F
(1712460291.536433) vcan0 493#000B207000000000
(1712460291.536693) vcan0 4DD#0000000000000100
(1712460291.536943) vcan0 4DE#001E0B00F0C01E00
(1712460291.537113) vcan0 4E2#000000000000C11E
(1712460291.537373) vcan0 542#650A00000000FFFF
(1712460291.537633) vcan0 595#0B00B8B80000180E
(1712460291.537883) vcan0 596#2D71000000000A0A
(1712460291.538143) vcan0 597#0100000000000000
(1712460291.538393) vcan0 598#0000000003361E12
(1712460291.538573) vcan0 599#0800000000000000
(1712460291.538823) vcan0 59C#0000000000000000
(1712460291.539083) vcan0 59E#00000000180E0000
(1712460291.539333) vcan0 5A3#0F00000034713471
(1712460291.539593) vcan0 5D5#000000A0C8C80004
(1712460291.539853) vcan0 5D6#B8B800000A0A2556
(1712460291.540103) vcan0 5D7#0200000000000000
(1712460291.540273) vcan0 5D8#806504000000180E
(1712460291.635933) vcan0 594#36423642A0620120
(1712460291.636193) vcan0 491#000000000000000F
(1712460291.636443) vcan0 493#000B207000000000
(1712460291.636703) vcan0 4DD#0000000000000100
(1712460291.636873) vcan0 4DE#001E0B00F0C01E00
(1712460291.637133) vcan0 4E2#000000000000C11E
(1712460291.637383) vcan0 542#650A00000000FFFF
(1712460291.637643) vcan0 595#0B00B8B80000180E
(1712460291.637893) vcan0 596#7673000000000A0A
(1712460291.638153) vcan0 597#8100000000000000
(1712460291.638323) vcan0 598#0000000003361E12
(1712460291.638583) vcan0 599#0800000000000000
(1712460291.638833) vcan0 59C#0000000000000000
(1712460291.639093) vcan0 59E#00000000180E0000
(1712460291.639343) vcan0 5A3#0F00000034713471
(1712460291.639603) vcan0 5D5#000000A0C8C80004
(1712460291.639863) vcan0 5D6#B8B800000A0A2557
(1712460291.640033) vcan0 5D7#0200000000000000
(1712460291.640283) vcan0 5D8#806504000000180E
(1712460291.735943) vcan0 594#04420442A0620120
(1712460291.736203) vcan0 491#000000000000000F
(1712460291.736453) vcan0 493#000B207000000000
(1712460291.736713) vcan0 4DD#0000000000000100
(1712460291.736883) vcan0 4DE#001E0B00F0C01E00
(1712460291.737143) vcan0 4E2#000000000000C11E
(1712460291.737393) vcan0 542#650A00000000FFFF
(1712460291.737653) vcan0 595#0B00B8B80000180E
(1712460291.737903) vcan0 596#1575000000000A0A
(1712460291.738163) vcan0 597#0100000000000000
(1712460291.738333) vcan0 598#0000000003361E12
(1712460291.738593) vcan0 599#0800000000000000
(1712460291.738843) vcan0 59C#0000000000000000
(1712460291.739103) vcan0 59E#00000000180E0000
(1712460291.739353) vcan0 5A3#0F00000034713471
(1712460291.739613) vcan0 5D5#000000A0C8C80004
(1712460291.739783) vcan0 5D6#B8B800000A0A76A9
(1712460291.740043) vcan0 5D7#0200000000000000
(1712460291.740293) vcan0 5D8#806504000000180E
(1712460291.835953) vcan0 594#D241D241A0620120
(1712460291.836213) vcan0 491#000000000000000F
(1712460291.836383) vcan0 493#000B207000000000
(1712460291.836633) vcan0 4DD#0000000000000100
(1712460291.836893) vcan0 4DE#001E0B00F0C01E00
(1712460291.837153) vcan0 4E2#000000000000C11E
(1712460291.837403) vcan0 542#650A00000000FFFF
(1712460291.837663) vcan0 595#0B00B8B80000180E
(1712460291.837833) vcan0 596#2176000000000A0A
(1712460291.838093) vcan0 597#8100000000000000
(1712460291.838343) vcan0 598#0000000003361E12
(1712460291.838603) vcan0 599#0800000000000000
(1712460291.838853) vcan0 59C#0000000000000000
(1712460291.839113) vcan0 59E#00000000180E0000
(1712460291.839373) vcan0 5A3#0F00000034713471
(1712460291.839623) vcan0 5D5#000000A0C8C80004
(1712460291.839793) vcan0 5D6#B8B800000A0A76A8
(1712460291.840053) vcan0 5D7#0200000000000000
(1712460291.840303) vcan0 5D8#806504000000180E
(1712460291.935963) vcan0 594#A041A041A0620120
(1712460291.936223) vcan0 491#4C0000000000000F
(1712460291.936393) vcan0 493#000C207000005807
(1712460291.936653) vcan0 4DD#0000000000000100
(1712460291.936903) vcan0 4DE#001E0B00F0C01E00
(1712460291.937163) vcan0 4E2#C00360040000C11E
(1712460291.937413) vcan0 542#650A00000000FFFF
(1712460291.937583) vcan0 595#0B00B8B80000180E
(1712460291.937843) vcan0 596#227800004C000A0A
(1712460291.938103) vcan0 597#015E010000000000
(1712460291.938353) vcan0 598#0000000003361E12
(1712460291.938613) vcan0 599#0800000000000000
(1712460291.938863) vcan0 59C#0000000000000000
(1712460291.939123) vcan0 59E#00000000180E0000
(1712460291.939293) vcan0 5A3#0F00000034713471
(1712460291.939553) vcan0 5D5#000000A0C8C80004
(1712460291.939803) vcan0 5D6#B8B800000A0A2158
(1712460291.940063) vcan0 5D7#0200000000000000
(1712460291.940313) vcan0 5D8#806504005E01180E
(1712460292.035893) vcan0 594#6E416E41A0620120
(1712460292.036143) vcan0 3F6#1800000000000000
(1712460292.036403) vcan0 491#4C0000000000000F
(1712460292.036663) vcan0 493#000C207000005807
(1712460292.036833) vcan0 497#140000B400000000
(1712460292.037083) vcan0 498#0000000000000000
(1712460292.037343) vcan0 4DD#0000000000000100
(1712460292.037593) vcan0 4DE#001E0B00F0C01E00
(1712460292.037853) vcan0 4E2#C00360040000C11E
(1712460292.038113) vcan0 542#650A00000000FFFF
(1712460292.038283) vcan0 595#0B00B8B80000180E
(1712460292.038533) vcan0 596#257900004C000A0A
(1712460292.038793) vcan0 597#815E010000000000
(1712460292.039053) vcan0 598#0000000003361E12
(1712460292.039303) vcan0 599#0800000000000000
(1712460292.039563) vcan0 59C#0000000000000000
(1712460292.039813) vcan0 59E#00000000180E0000
(1712460292.039983) vcan0 5A3#0F00000034713471
(1712460292.040243) vcan0 5D5#000000A0C8C80004
(1712460292.040503) vcan0 5D6#B8B800000A0A2159
(1712460292.040753) vcan0 5D7#0200000000000000
(1712460292.041013) vcan0 5D8#806504005E01180E
(1712460292.135903) vcan0 594#3C413C41A0620120
(1712460292.136153) vcan0 491#4C0000000000000F
(1712460292.136413) vcan0 493#000C207000005807
(1712460292.136583) vcan0 4DD#0000000000000100
(1712460292.136843) vcan0 4DE#001E0B00F0C01E00
(1712460292.137093) vcan0 4E2#C00360040000C11E
(1712460292.137353) vcan0 542#650A00000000FFFF
(1712460292.137613) vcan0 595#0B00B8B80000180E
(1712460292.137783) vcan0 596#2D7900004C000A0A
(1712460292.138033) vcan0 597#015E010000000000
(1712460292.138293) vcan0 598#0000000003361E12
(1712460292.138543) vcan0 599#0800000000000000
(1712460292.138803) vcan0 59C#0000000000000000
(1712460292.139063) vcan0 59E#00000000180E0000
(1712460292.139313) vcan0 5A3#0F00000034713471
(1712460292.139573) vcan0 5D5#000000A0C8C80004
(1712460292.139743) vcan0 5D6#B8B800000A0A25A7
(1712460292.139993) vcan0 5D7#0200000000000000
(1712460292.140253) vcan0 5D8#806504005E01180E
(1712460292.235913) vcan0 594#0A410A41A0620120
(1712460292.236173) vcan0 491#4C0000000000000F
(1712460292.236343) vcan0 493#000C207000005807
(1712460292.236593) vcan0 4DD#0000000000000100
(1712460292.236853) vcan0 4DE#001E0B00F0C01E00
(1712460292.237103) vcan0 4E2#C00360040000C11E
(1712460292.237363) vcan0 542#650A00000000FFFF
(1712460292.237533) vcan0 595#0B00B8B80000180E
(1712460292.237793) vcan0 596#767A00004C000A0A
(1712460292.238043) vcan0 597#815E010000000000
(1712460292.238303) vcan0 598#0000000003361E12
(1712460292.238553) vcan0 599#0800000000000000
(1712460292.238813) vcan0 59C#0000000000000000
(1712460292.239073) vcan0 59E#00000000180E0000
(1712460292.239243) vcan0 5A3#0F00000034713471
(1712460292.239493) vcan0 5D5#000000A0C8C80004
(1712460292.239753) vcan0 5D6#B8B800000A0A25A6
(1712460292.240013) vcan0 5D7#0200000000000000
(1712460292.240263) vcan0 5D8#806504005E01180E
(1712460292.335923) vcan0 594#D840D840A0620120
(1712460292.336093) vcan0 491#4C0000000000000F
(1712460292.336353) vcan0 493#000C207000005807
(1712460292.336603) vcan0 4DD#0000000000000100
(1712460292.336863) vcan0 4DE#001E0B00F0C01E00
(1712460292.337113) vcan0 4E2#C00360040000C11E
(1712460292.337373) vcan0 542#650A00000000FFFF
(1712460292.337543) vcan0 595#0B00B8B80000180E
(1712460292.337803) vcan0 596#157A00004C000A0A
(1712460292.338053) vcan0 597#015E010000000000
(1712460292.338313) vcan0 598#0000000003361E12
(1712460292.338573) vcan0 599#0800000000000000
(1712460292.338823) vcan0 59C#0000000000000000
(1712460292.339083) vcan0 59E#00000000180E0000
(1712460292.339253) vcan0 5A3#0F00000034713471
(1712460292.339503) vcan0 5D5#000000A0C8C80004
(1712460292.339763) vcan0 5D6#B8B800000A0A765A
(1712460292.340023) vcan0 5D7#0200000000000000
(1712460292.340193) vcan0 5D8#806504005E01180E
(1712460292.416473) vcan0 7E4#042FF03200000000
(1712460292.422533) vcan0 7EC#037F2F7FAAAAAAAA
(1712460292.435933) vcan0 594#A640A640A0620120
(1712460292.436103) vcan0 491#4C0000000000000F
(1712460292.436363) vcan0 493#000C207000005807
(1712460292.436613) vcan0 4DD#0000000000000100
(1712460292.436873) vcan0 4DE#001E0B00F0C01E00
(1712460292.437133) vcan0 4E2#C00360040000C11E
(1712460292.437303) vcan0 542#650A00000000FFFF
(1712460292.437553) vcan0 595#0B00B8B80000180E
(1712460292.437813) vcan0 596#217A00004C000A0A
(1712460292.438063) vcan0 597#815E010000000000
(1712460292.438323) vcan0 598#0000000003361E12
(1712460292.438493) vcan0 599#0800000000000000
(1712460292.438753) vcan0 59C#0000000000000000
(1712460292.439003) vcan0 59E#00000000180E0000
(1712460292.439263) vcan0 5A3#0F00000034713471
(1712460292.439513) vcan0 5D5#000000A0C8C80004
(1712460292.439773) vcan0 5D6#B8B800000A0A765B
(1712460292.440033) vcan0 5D7#0200000000000000
(1712460292.440203) vcan0 5D8#806504005E01180E
(1712460292.535863) vcan0 594#74407440A0620120
(1712460292.536113) vcan0 491#4C0000000000000F
(1712460292.536373) vcan0 493#000C207000005807
(1712460292.536623) vcan0 4DD#0000000000000100
(1712460292.536883) vcan0 4DE#001E0B00F0C01E00
(1712460292.537053) vcan0 4E2#C00360040000C11E
(1712460292.537313) vcan0 542#650A00000000FFFF
(1712460292.537563) vcan0 595#0B00B8B80000180E
(1712460292.537823) vcan0 596#227B00004C000A0A
(1712460292.538073) vcan0 597#015E010000000000
(1712460292.538253) vcan0 598#0000000003361E12
(1712460292.538503) vcan0 599#0800000000000000
(1712460292.538763) vcan0 59C#0000000000000000
(1712460292.539013) vcan0 59E#00000000180E0000
(1712460292.539273) vcan0 5A3#0F00000034713471
(1712460292.539533) vcan0 5D5#000000A0C8C80004
(1712460292.539783) vcan0 5D6#B8B800000A0A21A5
(1712460292.540043) vcan0 5D7#0200000000000000
(1712460292.540213) vcan0 5D8#806504005E01180E
(1712460292.635873) vcan0 594#42404240A0620120
(1712460292.636123) vcan0 491#4C0000000000000F
(1712460292.636383) vcan0 493#000C207000005807
(1712460292.636633) vcan0 4DD#0000000000000100
(1712460292.636813) vcan0 4DE#001E0B00F0C01E00
(1712460292.637063) vcan0 4E2#C00360040000C11E
(1712460292.637323) vcan0 542#650A00000000FFFF
(1712460292.637573) vcan0 595#0B00B8B80000180E
(1712460292.637833) vcan0 596#257B00004C000A0A
(1712460292.638093) vcan0 597#815E010000000000
(1712460292.638263) vcan0 598#0000000003361E12
(1712460292.638513) vcan0 599#0800000000000000
(1712460292.638773) vcan0 59C#0000000000000000
(1712460292.639023) vcan0 59E#00000000180E0000
(1712460292.639283) vcan0 5A3#0F00000034713471
(1712460292.639543) vcan0 5D5#000000A0C8C80004
(1712460292.639713) vcan0 5D6#B8B800000A0A21A4
(1712460292.639963) vcan0 5D7#0200000000000000
(1712460292.640223) vcan0 5D8#806504005E01180E
(1712460292.735883) vcan0 594#10401040A0620120
(1712460292.736133) vcan0 491#4C0000000000000F
(1712460292.736393) vcan0 493#000C207000005807
(1712460292.736653) vcan0 4DD#0000000000000100
(1712460292.736823) vcan0 4DE#001E0B00F0C01E00
(1712460292.737073) vcan0 4E2#C00360040000C11E
(1712460292.737333) vcan0 542#650A00000000FFFF
(1712460292.737583) vcan0 595#0B00B8B80000180E
(1712460292.737843) vcan0 596#2D7B00004C000A0A
(1712460292.738103) vcan0 597#015E010000000000
(1712460292.738273) vcan0 598#0000000003361E12
(1712460292.738523) vcan0 599#0800000000000000
(1712460292.738783) vcan0 59C#0000000000000000
(1712460292.739033) vcan0 59E#00000000180E0000
(1712460292.739293) vcan0 5A3#0F00000034713471
(1712460292.739553) vcan0 5D5#000000A0C8C80004
(1712460292.739723) vcan0 5D6#B8B800000A0A255C
(1712460292.739973) vcan0 5D7#0200000000000000
(1712460292.740233) vcan0 5D8#806504005E01180E
(1712460292.835893) vcan0 594#DE3FDE3FA0620120
(1712460292.836143) vcan0 491#4C0000000000000F
(1712460292.836403) vcan0 493#000C207000005807
(1712460292.836573) vcan0 4DD#0000000000000100
(1712460292.836833) vcan0 4DE#001E0B00F0C01E00
(1712460292.837083) vcan0 4E2#C00360040000C11E
(1712460292.837343) vcan0 542#650A00000000FFFF
(1712460292.837593) vcan0 595#0B00B8B80000180E
(1712460292.837773) vcan0 596#767B00004C000A0A
(1712460292.838023) vcan0 597#815E010000000000
(1712460292.838283) vcan0 598#0000000003361E12
(1712460292.838533) vcan0 599#0800000000000000
(1712460292.838793) vcan0 59C#0000000000000000
(1712460292.839053) vcan0 59E#00000000180E0000
(1712460292.839303) vcan0 5A3#0F00000034713471
(1712460292.839473) vcan0 5D5#000000A0C8C80004
(1712460292.839733) vcan0 5D6#B8B800000A0A255D
(1712460292.839983) vcan0 5D7#0200000000000000
(1712460292.840243) vcan0 5D8#806504005E01180E
(1712460292.935903) vcan0 594#AC3FAC3FA0620120
(1712460292.936153) vcan0 491#4C0000000000000F
(1712460292.936333) vcan0 493#000C207000005807
(1712460292.936583) vcan0 4DD#0000000000000100
(1712460292.936843) vcan0 4DE#001E0B00F0C01E00
(1712460292.937093) vcan0 4E2#C00360040000C11E
(1712460292.937353) vcan0 542#650A00000000FFFF
(1712460292.937523) vcan0 595#0B00B8B80000180E
(1712460292.937783) vcan0 596#157B00004C000A0A
(1712460292.938033) vcan0 597#015E010000000000
(1712460292.938293) vcan0 598#0000000003361E12
(1712460292.938543) vcan0 599#0800000000000000
(1712460292.938803) vcan0 59C#0000000000000000
(1712460292.939063) vcan0 59E#00000000180E0000
(1712460292.939233) vcan0 5A3#0F00000034713471
(1712460292.939483) vcan0 5D5#000000A0C8C80004
(1712460292.939743) vcan0 5D6#B8B800000A0A76A3
(1712460292.939993) vcan0 5D7#0200000000000000
(1712460292.940253) vcan0 5D8#806504005E01180E
(1712460293.035913) vcan0 594#7A3F7A3FA0620120
(1712460293.036173) vcan0 3F6#1800000000000000
(1712460293.036343) vcan0 491#4C0000000000000F
(1712460293.036593) vcan0 493#000C207000005807
(1712460293.036853) vcan0 497#220000B400000000
(1712460293.037103) vcan0 498#0000000000000000
(1712460293.037363) vcan0 4DD#0000000000000100
(1712460293.037623) vcan0 4DE#001E0B00F0C01E00
(1712460293.037793) vcan0 4E2#C00360040000C11E
(1712460293.038043) vcan0 542#650A00000000FFFF
(1712460293.038303) vcan0 595#0B00B8B80000180E
(1712460293.038553) vcan0 596#217C00004C000A0A
(1712460293.038813) vcan0 597#815E010000000000
(1712460293.039073) vcan0 598#0000000003361E12
(1712460293.039243) vcan0 599#0800000000000000
(1712460293.039493) vcan0 59C#0000000000000000
(1712460293.039753) vcan0 59E#00000000180E0000
(1712460293.040013) vcan0 5A3#0F00000034713471
(1712460293.040263) vcan0 5D5#000000A0C8C80004
(1712460293.040523) vcan0 5D6#B8B800000A0A76A2
(1712460293.040693) vcan0 5D7#0200000000000000
(1712460293.040943) vcan0 5D8#806504005E01180E
(1712460293.135923) vcan0 594#483F483FA0620120
(1712460293.136093) vcan0 491#4C0000000000000F
(1712460293.136353) vcan0 493#000C207000005807
(1712460293.136603) vcan0 4DD#0000000000000100
(1712460293.136863) vcan0 4DE#001E0B00F0C41E00
(1712460293.137113) vcan0 4E2#C00360040000C19E
(1712460293.137373) vcan0 542#650A00000000FFFF
(1712460293.137543) vcan0 595#0B00B8B80000180E
(1712460293.137803) vcan0 596#227C00004C000A0A
(1712460293.138053) vcan0 597#015E010000000000
(1712460293.138313) vcan0 598#0000000003361E12
(1712460293.138573) vcan0 599#0800000000000000
(1712460293.138823) vcan0 59C#0000000000000000
(1712460293.139083) vcan0 59E#00000000180E0000
(1712460293.139253) vcan0 5A3#0F00000034713471
(1712460293.139503) vcan0 5D5#000000A0C8C80004
(1712460293.139763) vcan0 5D6#B8B800000A0A215E
(1712460293.140023) vcan0 5D7#0200000000000000
(1712460293.140273) vcan0 5D8#806504005E01180E
(1712460293.235853) vcan0 594#163F163FA0620120
(1712460293.236103) vcan0 491#4C0000000000000F
(1712460293.236363) vcan0 493#000C207000005807
(1712460293.236613) vcan0 4DD#0000000000000100
(1712460293.236873) vcan0 4DE#001E0B00F0C41E00
(1712460293.237133) vcan0 4E2#C00360040000C19E
(1712460293.237303) vcan0 542#650A00000000FFFF
(1712460293.237553) vcan0 595#0B00B8B80000180E
(1712460293.237813) vcan0 596#257C00004C000A0A
(1712460293.238063) vcan0 597#815E010000000000
(1712460293.238323) vcan0 598#0000000003361E12
(1712460293.238583) vcan0 599#0800000000000000
(1712460293.238833) vcan0 59C#0000000000000000
(1712460293.239003) vcan0 59E#00000000180E0000
(1712460293.239263) vcan0 5A3#0F00000034713471
(1712460293.239513) vcan0 5D5#000000A0C8C80004
(1712460293.239773) vcan0 5D6#B8B800000A0A215F
(1712460293.240033) vcan0 5D7#0200000000000000
(1712460293.240203) vcan0 5D8#806504005E01180E
(1712460293.335863) vcan0 594#E43EE43EA0620120
(1712460293.336113) vcan0 491#4C0000000000000F
(1712460293.336373) vcan0 493#000C207000005807
(1712460293.336623) vcan0 4DD#0000000000000100
(1712460293.336883) vcan0 4DE#001E0B00F0C41E00
(1712460293.337053) vcan0 4E2#C00360040000C19E
(1712460293.337313) vcan0 542#650A00000000FFFF
(1712460293.337563) vcan0 595#0B00B8B80000180E
(1712460293.337823) vcan0 596#2D7C00004C000A0A
(1712460293.338073) vcan0 597#015E010000000000
(1712460293.338253) vcan0 598#0000000003361E12
(1712460293.338503) vcan0 599#0800000000000000
(1712460293.338763) vcan0 59C#0000000000000000
(1712460293.339013) vcan0 59E#00000000180E0000
(1712460293.339273) vcan0 5A3#0F00000034713471
(1712460293.339533) vcan0 5D5#000000A0C8C80004
(1712460293.339783) vcan0 5D6#B8B800000A0A25A1
(1712460293.340043) vcan0 5D7#0200000000000000
(1712460293.340213) vcan0 5D8#806504005E01180E
(1712460293.435873) vcan0 594#B23EB23EA0620120
(1712460293.436123) vcan0 491#4C0000000000000F
(1712460293.436383) vcan0 493#000C207000005807
(1712460293.436633) vcan0 4DD#0000000000000100
(1712460293.436813) vcan0 4DE#001E0B00F0C41E00
(1712460293.437063) vcan0 4E2#C00360040000C19E
(1712460293.437323) vcan0 542#650A00000000FFFF
(1712460293.437573) vcan0 595#0B00B8B80000180E
(1712460293.437833) vcan0 596#767C00004C000A0A
(1712460293.438003) vcan0 597#815E010000000000
(1712460293.438263) vcan0 598#0000000003361E12
(1712460293.438513) vcan0 599#0800000000000000
(1712460293.438773) vcan0 59C#0000000000000000
(1712460293.439023) vcan0 59E#00000000180E0000
(1712460293.439283) vcan0 5A3#0F00000034713471
(1712460293.439543) vcan0 5D5#000000A0C8C80004
(1712460293.439713) vcan0 5D6#B8B800000A0A25A0
(1712460293.439963) vcan0 5D7#0200000000000000
(1712460293.440223) vcan0 5D8#806504005E01180E
(1712460293.535883) vcan0 594#803E803EA0620120
(1712460293.536133) vcan0 491#4C0000000000000F
(1712460293.536393) vcan0 493#000C207000005807
(1712460293.536563) vcan0 4DD#0000000000000100
(1712460293.536823) vcan0 4DE#001E0B00F0C41E00
(1712460293.537073) vcan0 4E2#C00360040000C19E
(1712460293.537333) vcan0 542#650A00000000FFFF
(1712460293.537583) vcan0 595#0B00B8B80000180E
(1712460293.537843) vcan0 596#837C00004C000A0A
(1712460293.538013) vcan0 597#015E010000000000
(1712460293.538273) vcan0 598#0000000003361E12
(1712460293.538523) vcan0 599#0800000000000000
(1712460293.538783) vcan0 59C#0000000000000000
(1712460293.539033) vcan0 59E#00000000180E0000
(1712460293.539293) vcan0 5A3#0F00000034713471
(1712460293.539553) vcan0 5D5#000000A0C8C80004
(1712460293.539723) vcan0 5D6#B8B800000A0A7660
(1712460293.539973) vcan0 5D7#0200000000000000
(1712460293.540233) vcan0 5D8#806504005E01180E
(1712460293.608503) vcan0 7DF#0210810000000000
